Time Stamp,ID,Extended,Dir,Bus,LEN,D1,D2,D3,D4,D5,D6,D7,D8
1099471658,17F00010,true,Rx,0,8,20,10,00,00,00,00,00,80,
1099471668,0000012B,false,Rx,1,8,5F,1E,80,10,00,00,00,00,
1099471939,17F00010,true,Rx,0,8,20,10,00,00,00,00,00,80,
1099471950,00000663,false,Rx,1,8,60,28,20,0E,2A,9A,16,00,
1099472227,17F00010,true,Rx,0,8,20,10,00,00,00,00,00,80,
1099472237,00000658,false,Rx,1,8,33,0A,04,00,00,00,00,00,
1099497653,17F00010,true,Rx,0,8,20,10,00,00,00,00,00,80,
1099497664,00000184,false,Rx,1,8,DF,0D,00,00,00,00,00,00,
1099497899,17F00010,true,Rx,0,8,20,10,00,00,00,00,00,80,
1099497910,00000665,false,Rx,1,7,01,00,00,00,00,00,00,00,
1099498181,17F00010,true,Rx,0,8,20,10,00,00,00,00,00,80,
1099498201,00000643,false,Rx,1,8,00,02,03,00,00,00,00,00,
1099498469,17F00010,true,Rx,0,8,20,10,00,00,00,00,00,80,
1099498481,0000012B,false,Rx,1,8,75,1F,80,10,00,00,00,00,
1099498757,17F00010,true,Rx,0,8,20,10,00,00,00,00,00,80,
1099498768,0000032A,false,Rx,1,8,5A,09,00,00,00,02,00,00,
1099499045,17F00010,true,Rx,0,8,20,10,00,00,00,00,00,80,
1099499056,000003C7,false,Rx,1,8,FD,10,28,00,00,30,80,00,
1099499336,17F00010,true,Rx,0,8,20,10,00,00,00,00,00,80,
1099499347,0000031E,false,Rx,1,8,AA,E6,3F,00,00,00,00,00,
1099499621,17F00010,true,Rx,0,8,20,10,00,00,00,00,00,80,
1099499632,00000107,false,Rx,1,8,17,00,FE,E8,01,39,19,79,
1099524996,17F00010,true,Rx,0,8,20,10,00,00,00,00,00,80,
1099525006,0000012B,false,Rx,1,8,FE,10,80,10,00,00,00,00,
1099525253,17F00010,true,Rx,0,8,20,10,00,00,00,00,00,80,
1099525264,000003E5,false,Rx,1,8,5A,18,00,00,00,00,00,00,
1099525541,17F00010,true,Rx,0,8,20,10,00,00,00,00,00,80,
1099525552,000003D5,false,Rx,1,8,87,08,00,00,00,00,00,00,
1099525830,17F00010,true,Rx,0,8,20,10,00,00,00,00,00,80,
1099525841,000000FD,false,Rx,1,8,53,EA,3F,80,B0,15,00,00,
1099526117,17F00010,true,Rx,0,8,20,10,00,00,00,00,00,80,
1099526128,00000101,false,Rx,1,8,60,0A,76,0A,82,4A,41,00,
1099526405,17F00010,true,Rx,0,8,20,10,00,00,00,00,00,80,
1099526416,000003DC,false,Rx,1,8,E0,00,60,17,00,08,00,00,
1099526699,17F00010,true,Rx,0,8,20,10,00,00,00,00,00,80,
1099526710,000003C0,false,Rx,1,4,FE,04,03,00,00,00,00,00,
1099526981,17F00010,true,Rx,0,8,20,10,00,00,00,00,00,80,
1099527001,000000FD,false,Rx,1,8,5F,EB,3F,80,BB,15,00,00,
1099552081,17F00010,true,Rx,0,8,20,10,00,00,00,00,00,80,
1099552092,00000101,false,Rx,1,8,D3,0B,76,0C,82,4A,41,00,
1099552325,17F00010,true,Rx,0,8,20,10,00,00,00,00,00,80,
1099552336,000003B5,false,Rx,1,8,87,FE,00,28,1C,7D,18,00,
1099552618,17F00010,true,Rx,0,8,20,10,00,00,00,00,00,80,
1099552629,1B000046,true,Rx,1,8,46,00,04,01,01,00,00,00,
1099552901,17F00010,true,Rx,0,8,20,10,00,00,00,00,00,80,
1099552922,000005E9,false,Rx,1,8,00,6B,13,00,00,00,00,00,
1099553189,17F00010,true,Rx,0,8,20,10,00,00,00,00,00,80,
1099553200,00000668,false,Rx,1,8,02,00,00,43,00,00,E6,29,
1099553477,17F00010,true,Rx,0,8,20,10,00,00,00,00,00,80,
1099553488,0000031E,false,Rx,1,8,AC,E7,3F,00,00,00,00,00,
1099553768,17F00010,true,Rx,0,8,20,10,00,00,00,00,00,80,
1099553779,000005F2,false,Rx,1,2,FD,00,00,00,00,00,00,00,
1099554053,17F00010,true,Rx,0,8,20,10,00,00,00,00,00,80,
1099554064,0000030C,false,Rx,1,8,15,F9,3F,00,A0,30,00,40,
1099578996,17F00010,true,Rx,0,8,20,10,00,00,00,00,00,80,
1099579006,000003DC,false,Rx,1,8,E0,00,72,17,00,08,00,00,
1099579231,17F00010,true,Rx,0,8,20,10,00,00,00,00,00,80,
1099579241,000003EB,false,Rx,1,8,E0,00,00,FE,00,00,00,00,
1099579519,17F00010,true,Rx,0,8,20,10,00,00,00,00,00,80,
1099579529,00000107,false,Rx,1,8,17,00,FE,EA,81,39,73,79,
1099579812,17F00010,true,Rx,0,8,20,10,00,00,00,00,00,80,
1099579824,0000012B,false,Rx,1,8,28,12,80,10,00,00,00,00,
1099580094,17F00010,true,Rx,0,8,20,10,00,00,00,00,00,80,
1099580105,000000FD,false,Rx,1,8,4F,ED,3F,80,BB,15,00,00,
1099580382,17F00010,true,Rx,0,8,20,10,00,00,00,00,00,80,
1099580393,00000101,false,Rx,1,8,9F,0D,76,0F,82,56,41,00,
1099580670,17F00010,true,Rx,0,8,20,10,00,00,00,00,00,80,
1099580682,00000658,false,Rx,1,8,EC,0C,04,00,00,00,00,00,
1099580959,17F00010,true,Rx,0,8,20,10,00,00,00,00,00,80,
1099580969,1B000073,true,Rx,1,8,73,00,04,01,01,00,11,00,
1099606424,17F00010,true,Rx,0,8,20,10,00,00,00,00,00,80,
1099606436,0000031E,false,Rx,1,8,E5,E8,3F,00,00,00,00,00,
1099606651,17F00010,true,Rx,0,8,20,10,00,00,00,00,00,80,
1099606662,00000107,false,Rx,1,8,1A,00,FE,EA,81,39,92,79,
1099606938,17F00010,true,Rx,0,8,20,10,00,00,00,00,00,80,
1099606949,1B000014,true,Rx,1,8,14,00,04,01,01,00,00,00,
1099607226,17F00010,true,Rx,0,8,20,10,00,00,00,00,00,80,
1099607237,1B00000C,true,Rx,1,8,0C,00,04,01,01,00,04,00,
1099607514,17F00010,true,Rx,0,8,20,10,00,00,00,00,00,80,
1099607525,000000FD,false,Rx,1,8,5D,EE,3F,80,C6,15,00,00,
1099607802,17F00010,true,Rx,0,8,20,10,00,00,00,00,00,80,
1099607813,00000101,false,Rx,1,8,FF,0E,78,0F,82,4A,41,00,
1099608093,17F00010,true,Rx,0,8,20,10,00,00,00,00,00,80,
1099608105,1B00000E,true,Rx,1,8,0E,00,44,07,01,00,0E,00,
1099608378,17F00010,true,Rx,0,8,20,10,00,00,00,00,00,80,
1099608389,00000551,false,Rx,1,8,E1,22,E4,DA,00,00,00,00,
1099633853,17F00010,true,Rx,0,8,20,10,00,00,00,00,00,80,
1099633864,000003C0,false,Rx,1,4,4B,05,03,00,00,00,00,00,
1099634117,17F00010,true,Rx,0,8,20,10,00,00,00,00,00,80,
1099634128,0000030C,false,Rx,1,8,B9,FA,3F,00,A0,30,00,40,
1099634405,17F00010,true,Rx,0,8,20,10,00,00,00,00,00,80,
1099634416,000003DB,false,Rx,1,8,50,10,00,00,07,00,01,A7,
1099634693,17F00010,true,Rx,0,8,20,10,00,00,00,00,00,80,
1099634704,00000658,false,Rx,1,8,62,0D,04,00,00,00,00,00,
1099634981,17F00010,true,Rx,0,8,20,10,00,00,00,00,00,80,
1099634992,00000107,false,Rx,1,8,1A,00,FE,EB,01,3A,D0,79,
1099635269,17F00010,true,Rx,0,8,20,10,00,00,00,00,00,80,
1099635281,0000012B,false,Rx,1,8,F0,14,80,10,00,00,00,00,
1099635557,17F00010,true,Rx,0,8,20,10,00,00,00,00,00,80,
1099635568,0000032A,false,Rx,1,8,81,0C,00,00,00,02,00,00,
1099635845,17F00010,true,Rx,0,8,20,10,00,00,00,00,00,80,
1099635856,00000324,false,Rx,1,8,06,0A,00,00,00,00,00,00,
1099660945,17F00010,true,Rx,0,8,20,10,00,00,00,00,00,80,
1099660955,17330510,true,Rx,1,4,31,53,04,00,00,00,00,00,
1099661189,17F00010,true,Rx,0,8,20,10,00,00,00,00,00,80,
1099661199,000003DA,false,Rx,1,8,22,00,00,C6,15,2C,04,00,
1099661477,17F00010,true,Rx,0,8,20,10,00,00,00,00,00,80,
1099661488,000005F0,false,Rx,1,8,FD,00,64,00,00,7E,00,00,
1099661766,17F00010,true,Rx,0,8,20,10,00,00,00,00,00,80,
1099661777,000003D1,false,Rx,1,8,02,00,00,00,00,00,00,00,
1099662058,17F00010,true,Rx,0,8,20,10,00,00,00,00,00,80,
1099662069,000003D0,false,Rx,1,8,02,00,00,00,00,00,00,00,
1099662341,17F00010,true,Rx,0,8,20,10,00,00,00,00,00,80,
1099662362,000003D6,false,Rx,1,8,05,00,00,00,00,00,20,00,
1099662632,17F00010,true,Rx,0,8,20,10,00,00,00,00,00,80,
1099662643,000005E1,false,Rx,1,8,A6,00,00,00,00,00,00,00,
1099662917,17F00010,true,Rx,0,8,20,10,00,00,00,00,00,80,
1099662928,00000107,false,Rx,1,8,1A,00,FE,EB,81,3A,0E,7A,
1099688367,17F00010,true,Rx,0,8,20,10,00,00,00,00,00,80,
1099688378,000000FD,false,Rx,1,8,46,E2,3F,80,D2,15,00,00,
1099688636,17F00010,true,Rx,0,8,20,10,00,00,00,00,00,80,
1099688647,00000101,false,Rx,1,8,E0,02,74,11,82,56,41,00,
1099688929,17F00010,true,Rx,0,8,20,10,00,00,00,00,00,80,
1099688941,00000658,false,Rx,1,8,F4,0E,04,00,00,00,00,00,
1099689212,17F00010,true,Rx,0,8,20,10,00,00,00,00,00,80,
1099689223,00000640,false,Rx,1,8,00,89,9B,C2,7F,20,04,1C,
1099689500,17F00010,true,Rx,0,8,20,10,00,00,00,00,00,80,
1099689511,0000030C,false,Rx,1,8,DD,FB,3F,00,A0,30,00,40,
1099689790,17F00010,true,Rx,0,8,20,10,00,00,00,00,00,80,
1099689800,0000032A,false,Rx,1,8,E5,0D,00,00,00,02,00,00,
1099690077,17F00010,true,Rx,0,8,20,10,00,00,00,00,00,80,
1099690087,00000641,false,Rx,1,8,D1,1C,1F,52,14,0C,51,42,
1099690364,17F00010,true,Rx,0,8,20,10,00,00,00,00,00,80,
1099690375,000003BE,false,Rx,1,8,00,30,E7,01,88,80,0C,00,
1099715818,17F00010,true,Rx,0,8,20,10,00,00,00,00,00,80,
1099715828,00000040,false,Rx,1,8,F7,8A,00,00,80,00,00,00,
1099716090,17F00010,true,Rx,0,8,20,10,00,00,00,00,00,80,
1099716101,0000030B,false,Rx,1,8,10,02,00,3B,08,00,B7,00,
1099716378,17F00010,true,Rx,0,8,20,10,00,00,00,00,00,80,
1099716389,00000324,false,Rx,1,8,62,0B,00,00,00,00,00,00,
1099716666,17F00010,true,Rx,0,8,20,10,00,00,00,00,00,80,
1099716677,0000031B,false,Rx,1,8,E8,02,00,21,00,31,15,00,
1099716954,17F00010,true,Rx,0,8,20,10,00,00,00,00,00,80,
1099716966,00000107,false,Rx,1,8,1D,00,FE,EC,81,3A,4C,7A,
1099717242,17F00010,true,Rx,0,8,20,10,00,00,00,00,00,80,
1099717253,000003E5,false,Rx,1,8,2F,1A,00,00,00,00,00,00,
1099717533,17F00010,true,Rx,0,8,20,10,00,00,00,00,00,80,
1099717544,00000394,false,Rx,1,8,76,48,00,06,00,00,00,00,
1099717820,17F00010,true,Rx,0,8,20,10,00,00,00,00,00,80,
1099717830,000003DB,false,Rx,1,8,50,10,00,00,07,00,01,A6,
1099743224,17F00010,true,Rx,0,8,20,10,00,00,00,00,00,80,
1099743235,00000658,false,Rx,1,8,23,0F,04,00,00,00,00,00,
1099743452,17F00010,true,Rx,0,8,20,10,00,00,00,00,00,80,
1099743462,00000107,false,Rx,1,8,1D,00,FE,EC,01,3B,6C,7A,
1099743738,17F00010,true,Rx,0,8,20,10,00,00,00,00,00,80,
1099743759,0000032A,false,Rx,1,8,49,0E,00,00,00,02,00,00,
1099744026,17F00010,true,Rx,0,8,20,10,00,00,00,00,00,80,
1099744037,000000FD,false,Rx,1,8,F6,E5,3F,80,DD,15,00,00,
1099744314,17F00010,true,Rx,0,8,20,10,00,00,00,00,00,80,
1099744325,00000101,false,Rx,1,8,47,05,75,10,82,6F,41,00,
1099744607,17F00010,true,Rx,0,8,20,10,00,00,00,00,00,80,
1099744618,000003B5,false,Rx,1,8,87,FE,00,28,1C,7D,18,00,
1099744890,17F00010,true,Rx,0,8,20,10,00,00,00,00,00,80,
1099744901,1B000046,true,Rx,1,8,46,00,04,01,01,00,00,00,
1099745178,17F00010,true,Rx,0,8,20,10,00,00,00,00,00,80,
1099745189,0000030B,false,Rx,1,8,10,03,00,3B,08,00,B8,00,
1099770653,17F00010,true,Rx,0,8,20,10,00,00,00,00,00,80,
1099770664,0000012B,false,Rx,1,8,BC,18,80,10,00,00,00,00,
1099770917,17F00010,true,Rx,0,8,20,10,00,00,00,00,00,80,
1099770928,00000663,false,Rx,1,8,60,28,20,0E,2A,9A,16,00,
1099771205,17F00010,true,Rx,0,8,20,10,00,00,00,00,00,80,
1099771216,0000048B,false,Rx,1,8,00,00,00,00,00,80,03,00,
1099771498,17F00010,true,Rx,0,8,20,10,00,00,00,00,00,80,
1099771509,000000FD,false,Rx,1,8,E4,E6,3F,80,DD,15,00,00,
1099771781,17F00010,true,Rx,0,8,20,10,00,00,00,00,00,80,
1099771801,00000101,false,Rx,1,8,EB,06,75,10,82,6F,41,00,
1099772069,17F00010,true,Rx,0,8,20,10,00,00,00,00,00,80,
1099772081,0000031B,false,Rx,1,8,E5,03,00,21,00,56,15,00,
1099772359,17F00010,true,Rx,0,8,20,10,00,00,00,00,00,80,
1099772370,000005A0,false,Rx,1,5,4A,FD,83,20,78,00,00,00,
1099772645,17F00010,true,Rx,0,8,20,10,00,00,00,00,00,80,
1099772656,00000647,false,Rx,1,8,B8,FD,FF,7F,00,00,00,23,
1099797824,17F00010,true,Rx,0,8,20,10,00,00,00,00,00,80,
1099797835,0000012B,false,Rx,1,8,B4,19,80,10,00,00,00,00,
1099798111,17F00010,true,Rx,0,8,20,10,00,00,00,00,00,80,
1099798121,0000032A,false,Rx,1,8,2D,0F,00,00,00,02,00,00,
1099798400,17F00010,true,Rx,0,8,20,10,00,00,00,00,00,80,
1099798411,000003C7,false,Rx,1,8,14,10,28,00,00,30,80,00,
1099798691,17F00010,true,Rx,0,8,20,10,00,00,00,00,00,80,
1099798702,000003EA,false,Rx,1,8,00,00,00,10,C6,98,9E,7B,
1099798974,17F00010,true,Rx,0,8,20,10,00,00,00,00,00,80,
1099798985,17332910,true,Rx,1,3,3A,54,64,00,00,00,00,00,
1099799262,17F00010,true,Rx,0,8,20,10,00,00,00,00,00,80,
1099799273,1B000073,true,Rx,1,8,73,00,04,01,01,00,11,00,
1099799551,17F00010,true,Rx,0,8,20,10,00,00,00,00,00,80,
1099799561,0000031E,false,Rx,1,8,6B,EC,3F,00,00,00,00,00,
1099799838,17F00010,true,Rx,0,8,20,10,00,00,00,00,00,80,
1099799850,000006B4,false,Rx,1,8,01,45,4E,36,4E,4A,38,48,
1099824824,17F00010,true,Rx,0,8,20,10,00,00,00,00,00,80,
1099824835,00000107,false,Rx,1,8,20,00,FE,ED,81,3B,EA,7A,
1099825062,17F00010,true,Rx,0,8,20,10,00,00,00,00,00,80,
1099825073,0000012B,false,Rx,1,8,A4,1A,80,10,00,00,00,00,
1099825349,17F00010,true,Rx,0,8,20,10,00,00,00,00,00,80,
1099825360,000003E5,false,Rx,1,8,A4,1B,00,00,00,00,00,00,
1099825637,17F00010,true,Rx,0,8,20,10,00,00,00,00,00,80,
1099825649,000003D5,false,Rx,1,8,65,0B,00,00,00,00,00,00,
1099825925,17F00010,true,Rx,0,8,20,10,00,00,00,00,00,80,
1099825936,000000FD,false,Rx,1,8,D2,E9,3F,80,F3,15,00,00,
1099826217,17F00010,true,Rx,0,8,20,10,00,00,00,00,00,80,
1099826228,00000101,false,Rx,1,8,33,09,73,10,82,7B,41,00,
1099826504,17F00010,true,Rx,0,8,20,10,00,00,00,00,00,80,
1099826525,000003DC,false,Rx,1,8,E0,00,7A,17,00,08,00,00,
1099826789,17F00010,true,Rx,0,8,20,10,00,00,00,00,00,80,
1099826800,000000FD,false,Rx,1,8,9E,EA,3F,80,F3,15,00,00,
1099852262,17F00010,true,Rx,0,8,20,10,00,00,00,00,00,80,
1099852272,00000101,false,Rx,1,8,D7,0A,76,10,82,87,41,00,
1099852508,17F00010,true,Rx,0,8,20,10,00,00,00,00,00,80,
1099852519,000003B5,false,Rx,1,8,86,FE,00,28,1C,7D,18,00,
1099852796,17F00010,true,Rx,0,8,20,10,00,00,00,00,00,80,
1099852807,17F00046,true,Rx,1,8,20,46,00,00,00,00,00,80,
1099853090,17F00010,true,Rx,0,8,20,10,00,00,00,00,00,80,
1099853101,17330910,true,Rx,1,4,32,50,00,01,00,00,00,00,
1099853372,17F00010,true,Rx,0,8,20,10,00,00,00,00,00,80,
1099853383,0000031E,false,Rx,1,8,C2,ED,3F,00,00,00,00,00,
1099853660,17F00010,true,Rx,0,8,20,10,00,00,00,00,00,80,
1099853671,0000012B,false,Rx,1,8,01,1B,80,10,00,00,00,00,
1099853948,17F00010,true,Rx,0,8,20,10,00,00,00,00,00,80,
1099853959,000003DA,false,Rx,1,8,22,00,00,F3,15,44,04,00,
1099854236,17F00010,true,Rx,0,8,20,10,00,00,00,00,00,80,
1099854247,0000030C,false,Rx,1,8,06,FE,3F,00,A0,30,00,40,
1099879347,17F00010,true,Rx,0,8,20,10,00,00,00,00,00,80,
1099879358,000003DC,false,Rx,1,8,E0,00,98,17,00,08,00,00,
1099879614,17F00010,true,Rx,0,8,20,10,00,00,00,00,00,80,
1099879625,000003EB,false,Rx,1,8,E0,00,00,FE,00,00,00,00,
1099879904,17F00010,true,Rx,0,8,20,10,00,00,00,00,00,80,
1099879914,00000107,false,Rx,1,8,20,00,FE,EE,01,3C,4A,7B,
1099880191,17F00010,true,Rx,0,8,20,10,00,00,00,00,00,80,
1099880201,00000670,false,Rx,1,8,11,00,00,00,FE,00,00,80,
1099880479,17F00010,true,Rx,0,8,20,10,00,00,00,00,00,80,
1099880489,16A95497,true,Rx,1,8,00,80,6D,00,00,00,00,00,
1099880768,17F00010,true,Rx,0,8,20,10,00,00,00,00,00,80,
1099880778,0000012B,false,Rx,1,8,44,1C,80,10,00,00,00,00,
1099881057,17F00010,true,Rx,0,8,20,10,00,00,00,00,00,80,
1099881068,00000394,false,Rx,1,8,FF,49,00,06,00,00,00,00,
1099881342,17F00010,true,Rx,0,8,20,10,00,00,00,00,00,80,
1099881353,17330A10,true,Rx,1,8,32,93,FF,FF,FF,FF,EE,EE,
1099906780,17F00010,true,Rx,0,8,20,10,00,00,00,00,00,80,
1099906791,0000031E,false,Rx,1,8,B7,EE,3F,00,00,00,00,00,
1099907034,17F00010,true,Rx,0,8,20,10,00,00,00,00,00,80,
1099907045,00000107,false,Rx,1,8,23,00,FE,EE,01,3C,6A,7B,
1099907322,17F00010,true,Rx,0,8,20,10,00,00,00,00,00,80,
1099907334,000000FD,false,Rx,1,8,2F,ED,3F,80,F9,15,00,00,
1099907610,17F00010,true,Rx,0,8,20,10,00,00,00,00,00,80,
1099907621,00000101,false,Rx,1,8,E2,0D,74,13,82,7B,41,00,
1099907898,17F00010,true,Rx,0,8,20,10,00,00,00,00,00,80,
1099907909,00000116,false,Rx,1,8,1A,0C,9D,E6,2A,64,98,FF,
1099908186,17F00010,true,Rx,0,8,20,10,00,00,00,00,00,80,
1099908198,000003BE,false,Rx,1,8,00,30,E7,01,88,80,0C,00,
1099908474,17F00010,true,Rx,0,8,20,10,00,00,00,00,00,80,
1099908485,00000040,false,Rx,1,8,48,8E,00,00,80,00,00,00,
1099908767,17F00010,true,Rx,0,8,20,10,00,00,00,00,00,80,
1099908777,000003DC,false,Rx,1,8,E0,00,CA,17,00,08,00,00,
1099934538,17F00010,true,Rx,0,8,20,10,00,00,00,00,00,80,
1099934549,17331310,true,Rx,1,3,34,D0,03,00,00,00,00,00,
1099934789,17F00010,true,Rx,0,8,20,10,00,00,00,00,00,80,
1099934799,17331210,true,Rx,1,5,34,90,20,A2,00,00,00,00,
1099935077,17F00010,true,Rx,0,8,20,10,00,00,00,00,00,80,
1099935088,000003C0,false,Rx,1,4,4F,08,03,00,00,00,00,00,
1099935366,17F00010,true,Rx,0,8,20,10,00,00,00,00,00,80,
1099935377,0000030C,false,Rx,1,8,62,FF,3F,00,A0,30,00,40,
1099935657,17F00010,true,Rx,0,8,20,10,00,00,00,00,00,80,
1099935668,000003DB,false,Rx,1,8,50,10,00,00,07,00,01,A6,
1099935941,17F00010,true,Rx,0,8,20,10,00,00,00,00,00,80,
1099935962,00000658,false,Rx,1,8,C2,03,04,00,00,00,00,00,
1099936232,17F00010,true,Rx,0,8,20,10,00,00,00,00,00,80,
1099936243,00000481,false,Rx,1,8,00,00,00,00,00,00,00,00,
1099936517,17F00010,true,Rx,0,8,20,10,00,00,00,00,00,80,
1099936528,000003DA,false,Rx,1,8,22,00,00,0F,16,4C,04,00,
1099960947,17F00010,true,Rx,0,8,20,10,00,00,00,00,00,80,
1099960958,17F0000E,true,Rx,1,8,20,0E,00,00,00,00,00,80,
1099961178,17F00010,true,Rx,0,8,20,10,00,00,00,00,00,80,
1099961189,000003D0,false,Rx,1,8,02,00,00,00,00,00,00,00,
1099961466,17F00010,true,Rx,0,8,20,10,00,00,00,00,00,80,
1099961487,000003D1,false,Rx,1,8,02,00,00,00,00,00,00,00,
1099961754,17F00010,true,Rx,0,8,20,10,00,00,00,00,00,80,
1099961766,000003D6,false,Rx,1,8,08,00,00,00,00,00,20,00,
1099962042,17F00010,true,Rx,0,8,20,10,00,00,00,00,00,80,
1099962053,1B000010,true,Rx,1,8,10,00,04,01,29,04,00,00,
1099962330,17F00010,true,Rx,0,8,20,10,00,00,00,00,00,80,
1099962341,00000040,false,Rx,1,8,2C,8F,00,00,80,00,00,00,
1099962619,17F00010,true,Rx,0,8,20,10,00,00,00,00,00,80,
1099962630,00000107,false,Rx,1,8,23,00,FE,F0,81,3C,CB,7B,
1099962906,17F00010,true,Rx,0,8,20,10,00,00,00,00,00,80,
1099962927,00000107,false,Rx,1,8,23,00,FE,F1,81,3C,EB,7B,
1099988380,17F00010,true,Rx,0,8,20,10,00,00,00,00,00,80,
1099988391,00000585,false,Rx,1,8,0C,3C,0A,7F,12,00,00,00,
1099988645,17F00010,true,Rx,0,8,20,10,00,00,00,00,00,80,
1099988656,000000FD,false,Rx,1,8,A8,E1,3F,80,FF,15,00,00,
1099988934,17F00010,true,Rx,0,8,20,10,00,00,00,00,00,80,
1099988945,00000101,false,Rx,1,8,F0,01,74,10,82,7B,41,00,
1099989221,17F00010,true,Rx,0,8,20,10,00,00,00,00,00,80,
1099989232,00000658,false,Rx,1,8,B4,04,04,00,00,00,00,00,
1099989509,17F00010,true,Rx,0,8,20,10,00,00,00,00,00,80,
1099989519,000003C7,false,Rx,1,8,14,10,28,00,00,30,80,00,
1099989798,17F00010,true,Rx,0,8,20,10,00,00,00,00,00,80,
1099989809,16A95497,true,Rx,1,8,00,A0,6D,00,00,00,00,00,
1099990087,17F00010,true,Rx,0,8,20,10,00,00,00,00,00,80,
1099990098,0000032A,false,Rx,1,8,C3,03,00,00,00,02,00,00,
1099990377,17F00010,true,Rx,0,8,20,10,00,00,00,00,00,80,
1099990387,1B00000E,true,Rx,1,8,0E,00,44,07,01,00,0E,00,
1100015796,17F00010,true,Rx,0,8,20,10,00,00,00,00,00,80,
1100015806,000003BE,false,Rx,1,8,00,30,E7,01,88,80,0C,00,
1100016065,17F00010,true,Rx,0,8,20,10,00,00,00,00,00,80,
1100016075,00000040,false,Rx,1,8,6E,80,00,00,80,00,00,00,
1100016366,17F00010,true,Rx,0,8,20,10,00,00,00,00,00,80,
1100016376,0000030B,false,Rx,1,8,10,08,00,3B,08,00,B9,00,
1100016641,17F00010,true,Rx,0,8,20,10,00,00,00,00,00,80,
1100016651,00000324,false,Rx,1,8,9F,00,00,00,00,00,00,00,
1100016932,17F00010,true,Rx,0,8,20,10,00,00,00,00,00,80,
1100016943,0000031B,false,Rx,1,8,43,08,3C,21,00,0D,16,00,
1100017218,17F00010,true,Rx,0,8,20,10,00,00,00,00,00,80,
1100017229,000006B4,false,Rx,1,8,00,FB,A0,42,41,54,4D,42,
1100017505,17F00010,true,Rx,0,8,20,10,00,00,00,00,00,80,
1100017515,00000107,false,Rx,1,8,26,00,FE,02,02,3D,2E,7C,
1100017793,17F00010,true,Rx,0,8,20,10,00,00,00,00,00,80,
1100017803,00000658,false,Rx,1,8,4A,05,04,00,00,00,00,00,
1100043224,17F00010,true,Rx,0,8,20,10,00,00,00,00,00,80,
1100043235,00000107,false,Rx,1,8,26,00,FE,0A,02,3D,4F,7C,
1100043490,17F00010,true,Rx,0,8,20,10,00,00,00,00,00,80,
1100043501,0000032A,false,Rx,1,8,D0,04,00,00,00,02,00,00,
1100043774,17F00010,true,Rx,0,8,20,10,00,00,00,00,00,80,
1100043785,000000FD,false,Rx,1,8,2C,E4,3F,80,04,16,00,00,
1100044063,17F00010,true,Rx,0,8,20,10,00,00,00,00,00,80,
1100044073,00000101,false,Rx,1,8,CC,04,74,0E,82,87,41,00,
1100044350,17F00010,true,Rx,0,8,20,10,00,00,00,00,00,80,
1100044361,00000394,false,Rx,1,8,35,4A,00,06,00,00,00,00,
1100044638,17F00010,true,Rx,0,8,20,10,00,00,00,00,00,80,
1100044650,000003B5,false,Rx,1,8,86,FE,00,28,1C,7D,18,00,
1100044929,17F00010,true,Rx,0,8,20,10,00,00,00,00,00,80,
1100044940,0000031E,false,Rx,1,8,07,E1,3F,00,00,00,00,00,
1100045214,17F00010,true,Rx,0,8,20,10,00,00,00,00,00,80,
1100045225,00000520,false,Rx,1,8,8A,00,00,0C,00,AF,02,00,
1100070653,17F00010,true,Rx,0,8,20,10,00,00,00,00,00,80,
1100070664,0000030B,false,Rx,1,8,10,09,00,3B,08,00,B9,00,
1100070906,17F00010,true,Rx,0,8,20,10,00,00,00,00,00,80,
1100070917,0000012B,false,Rx,1,8,28,12,80,10,00,00,00,00,
1100071194,17F00010,true,Rx,0,8,20,10,00,00,00,00,00,80,
1100071205,00000663,false,Rx,1,8,60,28,20,0E,29,9A,16,00,
1100071482,17F00010,true,Rx,0,8,20,10,00,00,00,00,00,80,
1100071493,0000048B,false,Rx,1,8,00,00,00,00,00,80,03,00,
1100071770,17F00010,true,Rx,0,8,20,10,00,00,00,00,00,80,
1100071781,000000FD,false,Rx,1,8,95,E5,3F,80,0F,16,00,00,
1100072058,17F00010,true,Rx,0,8,20,10,00,00,00,00,00,80,
1100072069,00000101,false,Rx,1,8,8E,05,76,0D,82,7B,41,00,
1100072346,17F00010,true,Rx,0,8,20,10,00,00,00,00,00,80,
1100072357,0000031B,false,Rx,1,8,B1,09,4C,21,00,31,16,00,
1100072634,17F00010,true,Rx,0,8,20,10,00,00,00,00,00,80,
1100072645,000003C7,false,Rx,1,8,FD,10,28,00,00,30,80,00,
1100098081,17F00010,true,Rx,0,8,20,10,00,00,00,00,00,80,
1100098092,0000012B,false,Rx,1,8,70,13,80,10,00,00,00,00,
1100098339,17F00010,true,Rx,0,8,20,10,00,00,00,00,00,80,
1100098349,0000032A,false,Rx,1,8,B4,05,00,00,00,02,00,00,
1100098627,17F00010,true,Rx,0,8,20,10,00,00,00,00,00,80,
1100098637,0000031E,false,Rx,1,8,BD,E2,3F,00,00,00,00,00,
1100098916,17F00010,true,Rx,0,8,20,10,00,00,00,00,00,80,
1100098927,00000107,false,Rx,1,8,29,00,FE,2F,82,3D,BA,7C,
1100099203,17F00010,true,Rx,0,8,20,10,00,00,00,00,00,80,
1100099214,16A95497,true,Rx,1,8,00,E0,6D,00,00,00,00,00,
1100099494,17F00010,true,Rx,0,8,20,10,00,00,00,00,00,80,
1100099506,000000FD,false,Rx,1,8,BD,E7,3F,80,0F,16,00,00,
1100099781,17F00010,true,Rx,0,8,20,10,00,00,00,00,00,80,
1100099802,00000101,false,Rx,1,8,FA,07,74,08,82,9F,41,00,
1100100067,17F00010,true,Rx,0,8,20,10,00,00,00,00,00,80,
1100100078,00000107,false,Rx,1,8,29,00,FE,37,82,3D,E3,7C,
1100125510,17F00010,true,Rx,0,8,20,10,00,00,00,00,00,80,
1100125521,0000064E,false,Rx,1,8,00,00,00,00,00,00,00,00,
1100125793,17F00010,true,Rx,0,8,20,10,00,00,00,00,00,80,
1100125803,0000012B,false,Rx,1,8,F0,14,80,10,00,00,00,00,
1100126082,17F00010,true,Rx,0,8,20,10,00,00,00,00,00,80,
1100126093,000003E5,false,Rx,1,8,E1,1E,00,00,00,00,00,00,
1100126372,17F00010,true,Rx,0,8,20,10,00,00,00,00,00,80,
1100126383,000003D5,false,Rx,1,8,00,0E,00,00,00,00,00,00,
1100126657,17F00010,true,Rx,0,8,20,10,00,00,00,00,00,80,
1100126667,000000FD,false,Rx,1,8,7A,E8,3F,80,0F,16,00,00,
1100126957,17F00010,true,Rx,0,8,20,10,00,00,00,00,00,80,
1100126968,00000101,false,Rx,1,8,09,08,74,08,82,93,41,00,
1100127233,17F00010,true,Rx,0,8,20,10,00,00,00,00,00,80,
1100127243,000003DC,false,Rx,1,8,E0,00,00,1B,00,08,00,00,
1100127521,17F00010,true,Rx,0,8,20,10,00,00,00,00,00,80,
1100127533,000000FD,false,Rx,1,8,1F,E9,3F,80,15,16,00,00,
1100152947,17F00010,true,Rx,0,8,20,10,00,00,00,00,00,80,
1100152958,00000101,false,Rx,1,8,83,09,76,06,82,93,41,00,
1100153214,17F00010,true,Rx,0,8,20,10,00,00,00,00,00,80,
1100153225,000003B5,false,Rx,1,8,86,FE,00,27,1C,7D,18,00,
1100153504,17F00010,true,Rx,0,8,20,10,00,00,00,00,00,80,
1100153514,1B000046,true,Rx,1,8,46,00,04,01,01,00,00,00,
1100153791,17F00010,true,Rx,0,8,20,10,00,00,00,00,00,80,
1100153801,000005E9,false,Rx,1,8,00,65,13,00,00,00,00,00,
1100154079,17F00010,true,Rx,0,8,20,10,00,00,00,00,00,80,
1100154089,00000668,false,Rx,1,8,02,00,00,43,00,00,D3,29,
1100154368,17F00010,true,Rx,0,8,20,10,00,00,00,00,00,80,
1100154378,0000031E,false,Rx,1,8,FF,E3,3F,00,00,00,00,00,
1100154657,17F00010,true,Rx,0,8,20,10,00,00,00,00,00,80,
1100154668,000005F2,false,Rx,1,2,FD,00,00,00,00,00,00,00,
1100154943,17F00010,true,Rx,0,8,20,10,00,00,00,00,00,80,
1100154953,0000030C,false,Rx,1,8,8C,F3,3F,00,A0,30,00,40,
1100179859,17F00010,true,Rx,0,8,20,10,00,00,00,00,00,80,
1100179870,000003DC,false,Rx,1,8,E0,00,64,1C,00,08,00,00,
1100180134,17F00010,true,Rx,0,8,20,10,00,00,00,00,00,80,
1100180145,000003EB,false,Rx,1,8,E0,00,00,FE,00,00,00,00,
1100180420,17F00010,true,Rx,0,8,20,10,00,00,00,00,00,80,
1100180441,00000107,false,Rx,1,8,29,00,FE,58,82,3E,5C,7D,
1100180707,17F00010,true,Rx,0,8,20,10,00,00,00,00,00,80,
1100180727,0000012B,false,Rx,1,8,4C,16,80,10,00,00,00,00,
1100180995,17F00010,true,Rx,0,8,20,10,00,00,00,00,00,80,
1100181005,000000FD,false,Rx,1,8,7F,EB,3F,80,20,16,00,00,
1100181284,17F00010,true,Rx,0,8,20,10,00,00,00,00,00,80,
1100181295,00000101,false,Rx,1,8,D9,0B,73,FD,81,93,41,00,
1100181571,17F00010,true,Rx,0,8,20,10,00,00,00,00,00,80,
1100181582,00000394,false,Rx,1,8,F7,4B,00,04,00,00,00,00,
1100181859,17F00010,true,Rx,0,8,20,10,00,00,00,00,00,80,
1100181869,1B000073,true,Rx,1,8,73,00,04,01,01,00,11,00,
1100207624,17F00010,true,Rx,0,8,20,10,00,00,00,00,00,80,
1100207645,0000031E,false,Rx,1,8,52,E4,3F,00,00,00,00,00,
1100207900,17F00010,true,Rx,0,8,20,10,00,00,00,00,00,80,
1100207911,00000107,false,Rx,1,8,2D,00,FE,5F,02,3F,86,7D,
1100208190,17F00010,true,Rx,0,8,20,10,00,00,00,00,00,80,
1100208200,1B000014,true,Rx,1,8,14,00,04,01,01,00,00,00,
1100208477,17F00010,true,Rx,0,8,20,10,00,00,00,00,00,80,
1100208487,1B00000C,true,Rx,1,8,0C,00,04,01,01,00,04,00,
1100208764,17F00010,true,Rx,0,8,20,10,00,00,00,00,00,80,
1100208775,000000FD,false,Rx,1,8,79,EC,3F,80,26,16,00,00,
1100209054,17F00010,true,Rx,0,8,20,10,00,00,00,00,00,80,
1100209064,00000101,false,Rx,1,8,CB,0C,76,FF,81,87,41,00,
1100209343,17F00010,true,Rx,0,8,20,10,00,00,00,00,00,80,
1100209354,00000394,false,Rx,1,8,92,4C,00,04,00,00,00,00,
1100209628,17F00010,true,Rx,0,8,20,10,00,00,00,00,00,80,
1100209639,17332710,true,Rx,1,3,39,CE,00,00,00,00,00,00,
1100234624,17F00010,true,Rx,0,8,20,10,00,00,00,00,00,80,
1100234635,00000551,false,Rx,1,8,E1,22,E4,DA,00,00,00,00,
1100234885,17F00010,true,Rx,0,8,20,10,00,00,00,00,00,80,
1100234895,000003C0,false,Rx,1,4,BF,0B,03,00,00,00,00,00,
1100235176,17F00010,true,Rx,0,8,20,10,00,00,00,00,00,80,
1100235187,0000030C,false,Rx,1,8,9F,F4,3F,00,A0,30,00,40,
1100235462,17F00010,true,Rx,0,8,20,10,00,00,00,00,00,80,
1100235482,000003DB,false,Rx,1,8,50,10,00,00,07,00,01,A6,
1100235749,17F00010,true,Rx,0,8,20,10,00,00,00,00,00,80,
1100235759,00000658,false,Rx,1,8,47,09,04,00,00,00,00,00,
1100236037,17F00010,true,Rx,0,8,20,10,00,00,00,00,00,80,
1100236049,00000107,false,Rx,1,8,2D,00,FE,73,82,3F,DA,7D,
1100236325,17F00010,true,Rx,0,8,20,10,00,00,00,00,00,80,
1100236336,0000032A,false,Rx,1,8,3E,08,00,00,00,02,00,00,
1100236613,17F00010,true,Rx,0,8,20,10,00,00,00,00,00,80,
1100236624,000003DA,false,Rx,1,8,22,00,00,20,16,D4,04,00,
1100261732,17F00010,true,Rx,0,8,20,10,00,00,00,00,00,80,
1100261743,17332810,true,Rx,1,5,3A,0F,00,0F,02,00,00,00,
1100262018,17F00010,true,Rx,0,8,20,10,00,00,00,00,00,80,
1100262028,000005F0,false,Rx,1,8,FD,00,64,00,00,7E,00,00,
1100262305,17F00010,true,Rx,0,8,20,10,00,00,00,00,00,80,
1100262315,000003D1,false,Rx,1,8,02,00,00,00,00,00,00,00,
1100262593,17F00010,true,Rx,0,8,20,10,00,00,00,00,00,80,
1100262603,000003D0,false,Rx,1,8,02,00,00,00,00,00,00,00,
1100262882,17F00010,true,Rx,0,8,20,10,00,00,00,00,00,80,
1100262892,000003D6,false,Rx,1,8,0B,00,00,00,00,00,20,00,
1100263169,17F00010,true,Rx,0,8,20,10,00,00,00,00,00,80,
1100263179,000005E1,false,Rx,1,8,A6,00,00,00,00,00,00,00,
1100263459,17F00010,true,Rx,0,8,20,10,00,00,00,00,00,80,
1100263470,00000040,false,Rx,1,8,B5,85,00,00,80,00,00,00,
1100263745,17F00010,true,Rx,0,8,20,10,00,00,00,00,00,80,
1100263756,00000107,false,Rx,1,8,2D,00,FE,8B,02,40,2F,7E,
1100288881,17F00010,true,Rx,0,8,20,10,00,00,00,00,00,80,
1100288892,17331B10,true,Rx,1,3,36,D5,01,00,00,00,00,00,
1100289150,17F00010,true,Rx,0,8,20,10,00,00,00,00,00,80,
1100289161,000000FD,false,Rx,1,8,E2,E0,3F,80,26,16,00,00,
1100289440,17F00010,true,Rx,0,8,20,10,00,00,00,00,00,80,
1100289452,00000101,false,Rx,1,8,FE,00,74,07,82,AC,41,00,
1100289726,17F00010,true,Rx,0,8,20,10,00,00,00,00,00,80,
1100289737,00000658,false,Rx,1,8,33,0A,04,00,00,00,00,00,
1100290015,17F00010,true,Rx,0,8,20,10,00,00,00,00,00,80,
1100290025,00000647,false,Rx,1,8,B8,FD,FF,7F,00,00,00,18,
1100290304,17F00010,true,Rx,0,8,20,10,00,00,00,00,00,80,
1100290314,000003C7,false,Rx,1,8,FD,10,28,00,00,30,80,00,
1100290590,17F00010,true,Rx,0,8,20,10,00,00,00,00,00,80,
1100290601,0000030C,false,Rx,1,8,FB,F5,3F,00,A0,30,00,40,
1100290879,17F00010,true,Rx,0,8,20,10,00,00,00,00,00,80,
1100290889,000003BE,false,Rx,1,8,00,30,E7,01,88,80,0C,00,
1100315881,17F00010,true,Rx,0,8,20,10,00,00,00,00,00,80,
1100315892,00000040,false,Rx,1,8,19,86,00,00,80,00,00,00,
1100316161,17F00010,true,Rx,0,8,20,10,00,00,00,00,00,80,
1100316171,0000030B,false,Rx,1,8,10,0E,00,3B,08,00,BB,00,
1100316463,17F00010,true,Rx,0,8,20,10,00,00,00,00,00,80,
1100316474,00000324,false,Rx,1,8,44,05,00,00,00,00,00,00,
1100316737,17F00010,true,Rx,0,8,20,10,00,00,00,00,00,80,
1100316747,0000031B,false,Rx,1,8,3F,0E,80,21,00,EA,16,00,
1100317025,17F00010,true,Rx,0,8,20,10,00,00,00,00,00,80,
1100317035,00000107,false,Rx,1,8,32,00,FE,AC,02,41,86,7E,
1100317314,17F00010,true,Rx,0,8,20,10,00,00,00,00,00,80,
1100317324,16A95497,true,Rx,1,8,00,40,6E,00,00,00,00,00,
1100317603,17F00010,true,Rx,0,8,20,10,00,00,00,00,00,80,
1100317614,000003E5,false,Rx,1,8,3A,10,00,00,00,00,00,00,
1100317889,17F00010,true,Rx,0,8,20,10,00,00,00,00,00,80,
1100317899,00000658,false,Rx,1,8,9D,0B,04,00,00,00,00,00,
1100343319,17F00010,true,Rx,0,8,20,10,00,00,00,00,00,80,
1100343330,00000107,false,Rx,1,8,32,00,FE,BE,82,41,B2,7E,
1100343582,17F00010,true,Rx,0,8,20,10,00,00,00,00,00,80,
1100343593,0000032A,false,Rx,1,8,F6,0A,00,00,00,02,00,00,
1100343881,17F00010,true,Rx,0,8,20,10,00,00,00,00,00,80,
1100343892,000000FD,false,Rx,1,8,BE,E3,3F,80,48,16,00,00,
1100344159,17F00010,true,Rx,0,8,20,10,00,00,00,00,00,80,
1100344169,00000101,false,Rx,1,8,15,03,73,0A,82,AC,41,00,
1100344446,17F00010,true,Rx,0,8,20,10,00,00,00,00,00,80,
1100344457,000003B5,false,Rx,1,8,86,FE,00,23,1C,7D,18,00,
1100344736,17F00010,true,Rx,0,8,20,10,00,00,00,00,00,80,
1100344746,000005E9,false,Rx,1,8,00,65,13,00,00,00,00,00,
1100345023,17F00010,true,Rx,0,8,20,10,00,00,00,00,00,80,
1100345033,1B000046,true,Rx,1,8,46,00,04,01,01,00,00,00,
1100345311,17F00010,true,Rx,0,8,20,10,00,00,00,00,00,80,
1100345321,0000012B,false,Rx,1,8,44,1C,80,10,00,00,00,00,
1100370738,17F00010,true,Rx,0,8,20,10,00,00,00,00,00,80,
1100370749,00000394,false,Rx,1,8,B4,4D,00,04,00,00,00,00,
1100371002,17F00010,true,Rx,0,8,20,10,00,00,00,00,00,80,
1100371013,00000663,false,Rx,1,8,60,28,20,0E,28,9A,16,00,
1100371290,17F00010,true,Rx,0,8,20,10,00,00,00,00,00,80,
1100371301,0000048B,false,Rx,1,8,00,00,00,00,00,80,03,00,
1100371578,17F00010,true,Rx,0,8,20,10,00,00,00,00,00,80,
1100371589,000000FD,false,Rx,1,8,D2,E4,3F,80,53,16,00,00,
1100371866,17F00010,true,Rx,0,8,20,10,00,00,00,00,00,80,
1100371877,00000101,false,Rx,1,8,68,04,74,09,82,AC,41,00,
1100372154,17F00010,true,Rx,0,8,20,10,00,00,00,00,00,80,
1100372166,0000031B,false,Rx,1,8,96,0F,B2,21,00,0F,17,00,
1100372448,17F00010,true,Rx,0,8,20,10,00,00,00,00,00,80,
1100372459,000005A0,false,Rx,1,5,51,FD,83,20,78,00,00,00,
1100372730,17F00010,true,Rx,0,8,20,10,00,00,00,00,00,80,
1100372741,000003C7,false,Rx,1,8,14,10,28,00,00,30,80,00,
1100397910,17F00010,true,Rx,0,8,20,10,00,00,00,00,00,80,
1100397921,0000012B,false,Rx,1,8,10,1D,80,10,00,00,00,00,
1100398181,17F00010,true,Rx,0,8,20,10,00,00,00,00,00,80,
1100398192,0000032A,false,Rx,1,8,92,0B,00,00,00,02,00,00,
1100398469,17F00010,true,Rx,0,8,20,10,00,00,00,00,00,80,
1100398481,000003EA,false,Rx,1,8,00,00,00,10,06,A0,E0,7B,
1100398757,17F00010,true,Rx,0,8,20,10,00,00,00,00,00,80,
1100398768,17332310,true,Rx,1,3,38,C4,0A,00,00,00,00,00,
1100399045,17F00010,true,Rx,0,8,20,10,00,00,00,00,00,80,
1100399056,17332210,true,Rx,1,3,38,84,0A,00,00,00,00,00,
1100399336,17F00010,true,Rx,0,8,20,10,00,00,00,00,00,80,
1100399347,17330E10,true,Rx,1,8,33,83,78,07,00,00,00,00,
1100399621,17F00010,true,Rx,0,8,20,10,00,00,00,00,00,80,
1100399641,1B000073,true,Rx,1,8,73,00,04,01,01,00,11,00,
1100399909,17F00010,true,Rx,0,8,20,10,00,00,00,00,00,80,
1100399920,000006B4,false,Rx,1,8,00,FB,A0,42,41,54,4D,42,
1100424488,17F00010,true,Rx,0,8,20,10,00,00,00,00,00,80,
1100424498,00000107,false,Rx,1,8,39,00,FE,CB,82,43,73,7F,
1100424764,17F00010,true,Rx,0,8,20,10,00,00,00,00,00,80,
1100424775,0000012B,false,Rx,1,8,5F,1E,80,10,00,00,00,00,
1100425054,17F00010,true,Rx,0,8,20,10,00,00,00,00,00,80,
1100425064,17330F10,true,Rx,1,8,43,D5,6B,00,00,FF,FF,00,
1100425340,17F00010,true,Rx,0,8,20,10,00,00,00,00,00,80,
1100425351,000003E5,false,Rx,1,8,7B,11,00,00,00,00,00,00,
1100425628,17F00010,true,Rx,0,8,20,10,00,00,00,00,00,80,
1100425639,000003D5,false,Rx,1,8,E0,01,00,00,00,00,00,00,
1100425916,17F00010,true,Rx,0,8,20,10,00,00,00,00,00,80,
1100425927,000000FD,false,Rx,1,8,DC,E7,3F,80,5E,16,00,00,
1100426209,17F00010,true,Rx,0,8,20,10,00,00,00,00,00,80,
1100426220,00000101,false,Rx,1,8,7C,07,78,0B,82,D0,41,00,
1100426492,17F00010,true,Rx,0,8,20,10,00,00,00,00,00,80,
1100426504,000000FD,false,Rx,1,8,1B,E8,3F,80,5E,16,00,00,
1100452262,17F00010,true,Rx,0,8,20,10,00,00,00,00,00,80,
1100452272,00000101,false,Rx,1,8,4A,08,76,0C,82,C4,41,00,
1100452506,17F00010,true,Rx,0,8,20,10,00,00,00,00,00,80,
1100452517,000003B5,false,Rx,1,8,86,FE,00,21,1C,7D,18,00,
1100452794,17F00010,true,Rx,0,8,20,10,00,00,00,00,00,80,
1100452805,0000031E,false,Rx,1,8,DA,E9,3F,00,00,00,00,00,
1100453086,17F00010,true,Rx,0,8,20,10,00,00,00,00,00,80,
1100453097,0000012B,false,Rx,1,8,75,1F,80,10,00,00,00,00,
1100453370,17F00010,true,Rx,0,8,20,10,00,00,00,00,00,80,
1100453381,000003DA,false,Rx,1,8,22,00,00,5E,16,7C,04,00,
1100453658,17F00010,true,Rx,0,8,20,10,00,00,00,00,00,80,
1100453669,17333410,true,Rx,1,4,3D,10,00,00,00,00,00,00,
1100453946,17F00010,true,Rx,0,8,20,10,00,00,00,00,00,80,
1100453957,0000065A,false,Rx,1,8,00,00,00,00,00,00,3C,00,
1100454234,17F00010,true,Rx,0,8,20,10,00,00,00,00,00,80,
1100454245,17330F10,true,Rx,1,8,43,FE,6B,00,00,03,80,00,
1100479347,17F00010,true,Rx,0,8,20,10,00,00,00,00,00,80,
1100479358,0000030C,false,Rx,1,8,71,F8,3F,00,A0,30,00,40,
1100479578,17F00010,true,Rx,0,8,20,10,00,00,00,00,00,80,
1100479589,000003DC,false,Rx,1,8,E0,00,54,22,00,08,00,00,
1100479866,17F00010,true,Rx,0,8,20,10,00,00,00,00,00,80,
1100479877,000003EB,false,Rx,1,8,E0,00,00,FE,00,00,00,00,
1100480154,17F00010,true,Rx,0,8,20,10,00,00,00,00,00,80,
1100480166,00000588,false,Rx,1,8,00,00,00,1E,02,00,00,00,
1100480442,17F00010,true,Rx,0,8,20,10,00,00,00,00,00,80,
1100480453,000005F4,false,Rx,1,8,00,00,00,00,80,00,00,00,
1100480730,17F00010,true,Rx,0,8,20,10,00,00,00,00,00,80,
1100480741,17F00073,true,Rx,1,8,20,73,00,00,00,FF,00,80,
1100481022,17F00010,true,Rx,0,8,20,10,00,00,00,00,00,80,
1100481033,00000650,false,Rx,1,8,01,1A,44,00,00,00,00,00,
1100481306,17F00010,true,Rx,0,8,20,10,00,00,00,00,00,80,
1100481317,0000031E,false,Rx,1,8,EE,EA,3F,00,00,00,00,00,
1100506767,17F00010,true,Rx,0,8,20,10,00,00,00,00,00,80,
1100506778,00000107,false,Rx,1,8,44,00,FE,D8,82,46,4B,80,
1100507045,17F00010,true,Rx,0,8,20,10,00,00,00,00,00,80,
1100507056,000000FD,false,Rx,1,8,A3,EB,3F,80,6F,16,00,00,
1100507334,17F00010,true,Rx,0,8,20,10,00,00,00,00,00,80,
1100507345,00000101,false,Rx,1,8,69,0B,73,12,82,AC,41,00,
1100507621,17F00010,true,Rx,0,8,20,10,00,00,00,00,00,80,
1100507631,00000116,false,Rx,1,8,1D,0A,70,24,22,41,0B,FF,
1100507909,17F00010,true,Rx,0,8,20,10,00,00,00,00,00,80,
1100507929,000003BE,false,Rx,1,8,00,30,E7,01,88,80,0C,00,
1100508198,17F00010,true,Rx,0,8,20,10,00,00,00,00,00,80,
1100508209,00000040,false,Rx,1,8,F7,8A,00,00,80,00,00,00,
1100508485,17F00010,true,Rx,0,8,20,10,00,00,00,00,00,80,
1100508496,0000030B,false,Rx,1,8,10,02,00,3B,08,00,BD,00,
1100508775,17F00010,true,Rx,0,8,20,10,00,00,00,00,00,80,
1100508786,000003DC,false,Rx,1,8,E0,00,CE,22,00,08,00,00,
1100534209,17F00010,true,Rx,0,8,20,10,00,00,00,00,00,80,
1100534220,00000394,false,Rx,1,8,8B,4E,00,04,00,00,00,00,
1100534492,17F00010,true,Rx,0,8,20,10,00,00,00,00,00,80,
1100534504,0000030C,false,Rx,1,8,15,F9,3F,00,A0,30,00,40,
1100534780,17F00010,true,Rx,0,8,20,10,00,00,00,00,00,80,
1100534791,000003C0,false,Rx,1,4,80,0E,03,00,00,00,00,00,
1100535068,17F00010,true,Rx,0,8,20,10,00,00,00,00,00,80,
1100535079,000003DB,false,Rx,1,8,50,10,00,00,07,00,01,A6,
1100535356,17F00010,true,Rx,0,8,20,10,00,00,00,00,00,80,
1100535368,00000658,false,Rx,1,8,23,0F,04,00,00,00,00,00,
1100535646,17F00010,true,Rx,0,8,20,10,00,00,00,00,00,80,
1100535657,00000107,false,Rx,1,8,44,00,FE,E1,02,48,BB,80,
1100535935,17F00010,true,Rx,0,8,20,10,00,00,00,00,00,80,
1100535946,16A95497,true,Rx,1,8,00,C0,6E,00,00,00,00,00,
1100536222,17F00010,true,Rx,0,8,20,10,00,00,00,00,00,80,
1100536232,000003DA,false,Rx,1,8,22,00,00,86,16,3C,04,00,
1100561281,17F00010,true,Rx,0,8,20,10,00,00,00,00,00,80,
1100561292,000003D6,false,Rx,1,8,0E,00,00,00,00,00,20,00,
1100561566,17F00010,true,Rx,0,8,20,10,00,00,00,00,00,80,
1100561577,000003D0,false,Rx,1,8,02,00,00,00,00,00,00,00,
1100561854,17F00010,true,Rx,0,8,20,10,00,00,00,00,00,80,
1100561864,000003D1,false,Rx,1,8,02,00,00,00,00,00,00,00,
1100562140,17F00010,true,Rx,0,8,20,10,00,00,00,00,00,80,
1100562151,1B000010,true,Rx,1,8,10,00,04,01,29,04,00,00,
1100562428,17F00010,true,Rx,0,8,20,10,00,00,00,00,00,80,
1100562440,00000040,false,Rx,1,8,93,8B,00,00,80,00,00,00,
1100562716,17F00010,true,Rx,0,8,20,10,00,00,00,00,00,80,
1100562727,00000107,false,Rx,1,8,44,00,FE,E9,02,49,F3,80,
1100563014,17F00010,true,Rx,0,8,20,10,00,00,00,00,00,80,
1100563025,0000030B,false,Rx,1,8,10,03,00,3B,08,00,BD,00,
1100563292,17F00010,true,Rx,0,8,20,10,00,00,00,00,00,80,
1100563304,00000107,false,Rx,1,8,44,00,FE,EE,82,49,2A,81,
1100588710,17F00010,true,Rx,0,8,20,10,00,00,00,00,00,80,
1100588721,000000FD,false,Rx,1,8,2F,EF,3F,80,86,16,00,00,
1100588959,17F00010,true,Rx,0,8,20,10,00,00,00,00,00,80,
1100588969,00000101,false,Rx,1,8,E9,0F,76,12,82,9F,41,00,
1100589246,17F00010,true,Rx,0,8,20,10,00,00,00,00,00,80,
1100589257,00000658,false,Rx,1,8,84,00,04,00,00,00,00,00,
1100589536,17F00010,true,Rx,0,8,20,10,00,00,00,00,00,80,
1100589546,000003C7,false,Rx,1,8,14,10,28,00,00,30,80,00,
1100589823,17F00010,true,Rx,0,8,20,10,00,00,00,00,00,80,
1100589833,0000032A,false,Rx,1,8,2D,0F,00,00,00,02,00,00,
1100590111,17F00010,true,Rx,0,8,20,10,00,00,00,00,00,80,
1100590121,0000030C,false,Rx,1,8,B9,FA,3F,00,A0,30,00,40,
1100590402,17F00010,true,Rx,0,8,20,10,00,00,00,00,00,80,
1100590413,000003EA,false,Rx,1,8,00,00,00,10,C6,A3,E0,7B,
1100590688,17F00010,true,Rx,0,8,20,10,00,00,00,00,00,80,
1100590699,1B00000E,true,Rx,1,8,0E,00,44,07,01,00,0E,00,
1100616138,17F00010,true,Rx,0,8,20,10,00,00,00,00,00,80,
1100616149,000003BE,false,Rx,1,8,00,30,E7,01,88,80,0C,00,
1100616378,17F00010,true,Rx,0,8,20,10,00,00,00,00,00,80,
1100616389,00000040,false,Rx,1,8,80,8C,00,00,80,00,00,00,
1100616666,17F00010,true,Rx,0,8,20,10,00,00,00,00,00,80,
1100616677,0000030B,false,Rx,1,8,10,04,00,3B,08,00,BE,00,
1100616954,17F00010,true,Rx,0,8,20,10,00,00,00,00,00,80,
1100616966,00000324,false,Rx,1,8,06,0A,00,00,00,00,00,00,
1100617244,17F00010,true,Rx,0,8,20,10,00,00,00,00,00,80,
1100617255,0000031B,false,Rx,1,8,58,04,18,22,00,C9,17,00,
1100617530,17F00010,true,Rx,0,8,20,10,00,00,00,00,00,80,
1100617541,000006B2,false,Rx,1,8,BE,B5,DE,50,41,16,55,22,
1100617819,17F00010,true,Rx,0,8,20,10,00,00,00,00,00,80,
1100617830,000006B4,false,Rx,1,8,01,45,4E,36,4E,4A,38,48,
1100618106,17F00010,true,Rx,0,8,20,10,00,00,00,00,00,80,
1100618117,000003DB,false,Rx,1,8,50,10,00,00,07,00,01,A6,
1100643567,17F00010,true,Rx,0,8,20,10,00,00,00,00,00,80,
1100643578,00000658,false,Rx,1,8,7E,01,04,00,00,00,00,00,
1100643845,17F00010,true,Rx,0,8,20,10,00,00,00,00,00,80,
1100643856,00000107,false,Rx,1,8,4F,00,FE,0A,03,4C,F6,81,
1100644135,17F00010,true,Rx,0,8,20,10,00,00,00,00,00,80,
1100644146,0000032A,false,Rx,1,8,6F,00,00,00,00,02,00,00,
1100644421,17F00010,true,Rx,0,8,20,10,00,00,00,00,00,80,
1100644442,000000FD,false,Rx,1,8,2E,E2,3F,80,AD,16,00,00,
1100644709,17F00010,true,Rx,0,8,20,10,00,00,00,00,00,80,
1100644720,00000101,false,Rx,1,8,F0,02,74,13,82,9F,41,00,
1100644998,17F00010,true,Rx,0,8,20,10,00,00,00,00,00,80,
1100645009,000003B5,false,Rx,1,8,86,FE,00,1F,1C,7D,18,00,
1100645287,17F00010,true,Rx,0,8,20,10,00,00,00,00,00,80,
1100645298,0000031E,false,Rx,1,8,C2,ED,3F,00,00,00,00,00,
1100645573,17F00010,true,Rx,0,8,20,10,00,00,00,00,00,80,
1100645584,0000030B,false,Rx,1,8,10,05,00,3D,08,00,BE,00,
1100671010,17F00010,true,Rx,0,8,20,10,00,00,00,00,00,80,
1100671021,0000012B,false,Rx,1,8,4C,16,80,10,00,00,00,00,
1100671292,17F00010,true,Rx,0,8,20,10,00,00,00,00,00,80,
1100671304,00000663,false,Rx,1,8,60,28,20,0E,28,9A,16,00,
1100671581,17F00010,true,Rx,0,8,20,10,00,00,00,00,00,80,
1100671591,0000048B,false,Rx,1,8,00,00,00,00,00,80,03,00,
1100671868,17F00010,true,Rx,0,8,20,10,00,00,00,00,00,80,
1100671879,000000FD,false,Rx,1,8,5B,E3,3F,80,AD,16,00,00,
1100672156,17F00010,true,Rx,0,8,20,10,00,00,00,00,00,80,
1100672168,00000101,false,Rx,1,8,9E,03,79,17,82,87,41,00,
1100672444,17F00010,true,Rx,0,8,20,10,00,00,00,00,00,80,
1100672455,0000031B,false,Rx,1,8,CA,05,3A,22,00,EF,17,00,
1100672732,17F00010,true,Rx,0,8,20,10,00,00,00,00,00,80,
1100672743,000003CF,false,Rx,1,8,02,00,0E,00,00,00,60,01,
1100673022,17F00010,true,Rx,0,8,20,10,00,00,00,00,00,80,
1100673032,00000640,false,Rx,1,8,00,89,9B,C2,7F,20,04,1C,
1100698767,17F00010,true,Rx,0,8,20,10,00,00,00,00,00,80,
1100698778,0000012B,false,Rx,1,8,69,17,80,10,00,00,00,00,
1100699034,17F00010,true,Rx,0,8,20,10,00,00,00,00,00,80,
1100699045,00000641,false,Rx,1,8,B5,1D,1F,52,14,0C,51,42,
1100699322,17F00010,true,Rx,0,8,20,10,00,00,00,00,00,80,
1100699334,0000032A,false,Rx,1,8,0B,01,00,00,00,02,00,00,
1100699610,17F00010,true,Rx,0,8,20,10,00,00,00,00,00,80,
1100699621,000003C7,false,Rx,1,8,FD,10,28,00,00,30,80,00,
1100699898,17F00010,true,Rx,0,8,20,10,00,00,00,00,00,80,
1100699909,0000031E,false,Rx,1,8,B7,EE,3F,00,00,00,00,00,
1100700186,17F00010,true,Rx,0,8,20,10,00,00,00,00,00,80,
1100700198,00000107,false,Rx,1,8,5F,00,FE,24,83,4F,C4,82,
1100700477,17F00010,true,Rx,0,8,20,10,00,00,00,00,00,80,
1100700488,000000FD,false,Rx,1,8,57,E5,3F,80,AD,16,00,00,
1100700764,17F00010,true,Rx,0,8,20,10,00,00,00,00,00,80,
1100700774,00000107,false,Rx,1,8,5F,00,FE,2C,03,50,0B,83,
1100726196,17F00010,true,Rx,0,8,20,10,00,00,00,00,00,80,
1100726206,0000012B,false,Rx,1,8,BC,18,80,10,00,00,00,00,
1100726467,17F00010,true,Rx,0,8,20,10,00,00,00,00,00,80,
1100726478,000003E5,false,Rx,1,8,A3,14,00,00,00,00,00,00,
1100726755,17F00010,true,Rx,0,8,20,10,00,00,00,00,00,80,
1100726767,000003D5,false,Rx,1,8,8D,04,00,00,00,00,00,00,
1100727043,17F00010,true,Rx,0,8,20,10,00,00,00,00,00,80,
1100727053,000000FD,false,Rx,1,8,44,E6,3F,80,BE,16,00,00,
1100727332,17F00010,true,Rx,0,8,20,10,00,00,00,00,00,80,
1100727343,00000101,false,Rx,1,8,5A,06,73,15,82,7B,41,00,
1100727620,17F00010,true,Rx,0,8,20,10,00,00,00,00,00,80,
1100727640,000003DC,false,Rx,1,8,E0,00,4A,26,00,08,00,00,
1100727907,17F00010,true,Rx,0,8,20,10,00,00,00,00,00,80,
1100727918,000003C0,false,Rx,1,4,74,00,03,00,00,00,00,00,
1100728195,17F00010,true,Rx,0,8,20,10,00,00,00,00,00,80,
1100728205,000000FD,false,Rx,1,8,1C,E7,3F,80,DA,16,00,00,
1100753281,17F00010,true,Rx,0,8,20,10,00,00,00,00,00,80,
1100753292,00000101,false,Rx,1,8,A1,07,76,13,82,87,41,00,
1100753539,17F00010,true,Rx,0,8,20,10,00,00,00,00,00,80,
1100753559,0000032A,false,Rx,1,8,A7,02,00,00,00,02,00,00,
1100753827,17F00010,true,Rx,0,8,20,10,00,00,00,00,00,80,
1100753837,000003B5,false,Rx,1,8,86,FE,00,1E,1C,7D,18,00,
1100754116,17F00010,true,Rx,0,8,20,10,00,00,00,00,00,80,
1100754127,1B000046,true,Rx,1,8,46,00,04,01,01,00,00,00,
1100754403,17F00010,true,Rx,0,8,20,10,00,00,00,00,00,80,
1100754413,000005E9,false,Rx,1,8,00,5F,13,00,00,00,00,00,
1100754691,17F00010,true,Rx,0,8,20,10,00,00,00,00,00,80,
1100754701,00000668,false,Rx,1,8,02,00,00,43,00,00,CC,29,
1100754981,17F00010,true,Rx,0,8,20,10,00,00,00,00,00,80,
1100754992,0000031E,false,Rx,1,8,5E,EF,3F,00,00,00,00,00,
1100755267,17F00010,true,Rx,0,8,20,10,00,00,00,00,00,80,
1100755277,0000030C,false,Rx,1,8,AA,FD,3F,00,A0,30,00,40,
1100780710,17F00010,true,Rx,0,8,20,10,00,00,00,00,00,80,
1100780721,000003DC,false,Rx,1,8,E0,00,42,26,00,08,00,00,
1100780993,17F00010,true,Rx,0,8,20,10,00,00,00,00,00,80,
1100781003,000003EB,false,Rx,1,8,E0,00,00,FE,00,00,00,00,
1100781293,17F00010,true,Rx,0,8,20,10,00,00,00,00,00,80,
1100781304,00000107,false,Rx,1,8,5F,00,FE,2F,03,54,E0,83,
1100781569,17F00010,true,Rx,0,8,20,10,00,00,00,00,00,80,
1100781579,0000012B,false,Rx,1,8,A4,1A,80,10,00,00,00,00,
1100781857,17F00010,true,Rx,0,8,20,10,00,00,00,00,00,80,
1100781867,000000FD,false,Rx,1,8,23,E9,3F,80,E0,16,00,00,
1100782145,17F00010,true,Rx,0,8,20,10,00,00,00,00,00,80,
1100782156,00000101,false,Rx,1,8,04,09,76,14,82,87,41,00,
1100782434,17F00010,true,Rx,0,8,20,10,00,00,00,00,00,80,
1100782445,00000658,false,Rx,1,8,B4,04,04,00,00,00,00,00,
1100782721,17F00010,true,Rx,0,8,20,10,00,00,00,00,00,80,
1100782732,0000031E,false,Rx,1,8,CD,E0,3F,00,00,00,00,00,
1100808152,17F00010,true,Rx,0,8,20,10,00,00,00,00,00,80,
1100808162,00000107,false,Rx,1,8,72,00,FE,2E,83,55,2C,84,
1100808414,17F00010,true,Rx,0,8,20,10,00,00,00,00,00,80,
1100808425,1B000014,true,Rx,1,8,14,00,04,01,01,00,00,00,
1100808704,17F00010,true,Rx,0,8,20,10,00,00,00,00,00,80,
1100808714,1B00000C,true,Rx,1,8,0C,00,04,01,01,00,04,00,
1100808990,17F00010,true,Rx,0,8,20,10,00,00,00,00,00,80,
1100809001,000000FD,false,Rx,1,8,B6,EA,3F,80,F0,16,00,00,
1100809279,17F00010,true,Rx,0,8,20,10,00,00,00,00,00,80,
1100809289,00000101,false,Rx,1,8,01,0A,73,17,82,87,41,00,
1100809569,17F00010,true,Rx,0,8,20,10,00,00,00,00,00,80,
1100809579,1B00000E,true,Rx,1,8,0E,00,44,07,01,00,0E,00,
1100809857,17F00010,true,Rx,0,8,20,10,00,00,00,00,00,80,
1100809877,000003BE,false,Rx,1,8,00,30,E7,01,88,80,0C,00,
1100810143,17F00010,true,Rx,0,8,20,10,00,00,00,00,00,80,
1100810153,00000551,false,Rx,1,8,E1,22,E4,DA,00,00,00,00,
1100835567,17F00010,true,Rx,0,8,20,10,00,00,00,00,00,80,
1100835578,000003C0,false,Rx,1,4,C1,01,03,00,00,00,00,00,
1100835834,17F00010,true,Rx,0,8,20,10,00,00,00,00,00,80,
1100835845,0000030C,false,Rx,1,8,06,FE,3F,00,A0,30,00,40,
1100836123,17F00010,true,Rx,0,8,20,10,00,00,00,00,00,80,
1100836135,000003DB,false,Rx,1,8,50,10,00,00,07,00,01,A6,
1100836410,17F00010,true,Rx,0,8,20,10,00,00,00,00,00,80,
1100836421,17330810,true,Rx,1,8,32,02,03,00,08,00,05,01,
1100836698,17F00010,true,Rx,0,8,20,10,00,00,00,00,00,80,
1100836709,00000658,false,Rx,1,8,4A,05,04,00,00,00,00,00,
1100836986,17F00010,true,Rx,0,8,20,10,00,00,00,00,00,80,
1100836998,00000107,false,Rx,1,8,72,00,FE,2E,03,58,C5,84,
1100837274,17F00010,true,Rx,0,8,20,10,00,00,00,00,00,80,
1100837285,0000012B,false,Rx,1,8,44,1C,80,10,00,00,00,00,
1100837562,17F00010,true,Rx,0,8,20,10,00,00,00,00,00,80,
1100837573,000003DA,false,Rx,1,8,22,00,00,EB,16,E4,03,00,
1100862653,17F00010,true,Rx,0,8,20,10,00,00,00,00,00,80,
1100862664,000005F0,false,Rx,1,8,FD,00,64,00,00,7E,00,00,
1100862906,17F00010,true,Rx,0,8,20,10,00,00,00,00,00,80,
1100862917,000003D6,false,Rx,1,8,01,00,00,00,00,00,20,00,
1100863194,17F00010,true,Rx,0,8,20,10,00,00,00,00,00,80,
1100863205,000003D0,false,Rx,1,8,02,00,00,00,00,00,00,00,
1100863488,17F00010,true,Rx,0,8,20,10,00,00,00,00,00,80,
1100863498,000003D1,false,Rx,1,8,02,00,00,00,00,00,00,00,
1100863770,17F00010,true,Rx,0,8,20,10,00,00,00,00,00,80,
1100863781,000005E1,false,Rx,1,8,A6,00,00,00,00,00,00,00,
1100864058,17F00010,true,Rx,0,8,20,10,00,00,00,00,00,80,
1100864069,000006B0,false,Rx,1,6,5F,02,F2,02,98,58,00,00,
1100864349,17F00010,true,Rx,0,8,20,10,00,00,00,00,00,80,
1100864369,00000040,false,Rx,1,8,0A,81,00,00,80,00,00,00,
1100864634,17F00010,true,Rx,0,8,20,10,00,00,00,00,00,80,
1100864645,00000107,false,Rx,1,8,72,00,FE,2E,03,5A,5E,85,
1100889912,17F00010,true,Rx,0,8,20,10,00,00,00,00,00,80,
1100889923,00000670,false,Rx,1,8,11,00,00,00,FE,00,00,80,
1100890172,17F00010,true,Rx,0,8,20,10,00,00,00,00,00,80,
1100890183,000000FD,false,Rx,1,8,04,EE,3F,80,0D,17,00,00,
1100890460,17F00010,true,Rx,0,8,20,10,00,00,00,00,00,80,
1100890471,00000101,false,Rx,1,8,F0,0E,77,26,82,6F,41,00,
1100890748,17F00010,true,Rx,0,8,20,10,00,00,00,00,00,80,
1100890759,17330D10,true,Rx,1,3,33,4D,10,00,00,00,00,00,
1100891036,17F00010,true,Rx,0,8,20,10,00,00,00,00,00,80,
1100891047,00000658,false,Rx,1,8,91,06,04,00,00,00,00,00,
1100891324,17F00010,true,Rx,0,8,20,10,00,00,00,00,00,80,
1100891336,000003C7,false,Rx,1,8,FD,10,28,00,00,30,80,00,
1100891612,17F00010,true,Rx,0,8,20,10,00,00,00,00,00,80,
1100891623,0000030C,false,Rx,1,8,62,FF,3F,00,A0,30,00,40,
1100891900,17F00010,true,Rx,0,8,20,10,00,00,00,00,00,80,
1100891911,000003BE,false,Rx,1,8,00,30,E7,01,88,80,0C,00,
1100916916,17F00010,true,Rx,0,8,20,10,00,00,00,00,00,80,
1100916927,00000040,false,Rx,1,8,A6,82,00,00,80,00,00,00,
1100917157,17F00010,true,Rx,0,8,20,10,00,00,00,00,00,80,
1100917168,0000030B,false,Rx,1,8,10,0A,00,3D,08,00,C2,00,
1100917446,17F00010,true,Rx,0,8,20,10,00,00,00,00,00,80,
1100917457,17F0000C,true,Rx,1,8,20,0C,00,00,00,00,00,80,
1100917734,17F00010,true,Rx,0,8,20,10,00,00,00,00,00,80,
1100917745,00000324,false,Rx,1,8,DD,0F,00,00,00,00,00,00,
1100918021,17F00010,true,Rx,0,8,20,10,00,00,00,00,00,80,
1100918041,0000031B,false,Rx,1,8,6C,0A,EC,22,00,AE,10,00,
1100918309,17F00010,true,Rx,0,8,20,10,00,00,00,00,00,80,
1100918320,00000107,false,Rx,1,8,7E,00,FE,2E,03,5B,00,86,
1100918600,17F00010,true,Rx,0,8,20,10,00,00,00,00,00,80,
1100918611,17330F10,true,Rx,1,8,43,D5,9B,00,00,FF,FF,00,
1100918885,17F00010,true,Rx,0,8,20,10,00,00,00,00,00,80,
1100918896,00000658,false,Rx,1,8,64,07,04,00,00,00,00,00,
1100944681,17F00010,true,Rx,0,8,20,10,00,00,00,00,00,80,
1100944692,00000481,false,Rx,1,8,00,00,00,00,00,00,00,00,
1100944927,17F00010,true,Rx,0,8,20,10,00,00,00,00,00,80,
1100944938,00000107,false,Rx,1,8,7E,00,FE,2E,83,5A,51,86,
1100945214,17F00010,true,Rx,0,8,20,10,00,00,00,00,00,80,
1100945225,000000FD,false,Rx,1,8,F1,E1,3F,80,34,17,00,00,
1100945504,17F00010,true,Rx,0,8,20,10,00,00,00,00,00,80,
1100945514,00000101,false,Rx,1,8,F4,01,79,31,82,93,41,00,
1100945790,17F00010,true,Rx,0,8,20,10,00,00,00,00,00,80,
1100945801,0000032A,false,Rx,1,8,18,06,00,00,00,02,00,00,
1100946079,17F00010,true,Rx,0,8,20,10,00,00,00,00,00,80,
1100946089,000003B5,false,Rx,1,8,86,FE,00,1C,1C,7D,18,00,
1100946368,17F00010,true,Rx,0,8,20,10,00,00,00,00,00,80,
1100946378,1B000046,true,Rx,1,8,46,00,04,01,01,00,00,00,
1100946654,17F00010,true,Rx,0,8,20,10,00,00,00,00,00,80,
1100946665,000000FD,false,Rx,1,8,1D,E2,3F,80,3F,17,00,00,
1100972119,17F00010,true,Rx,0,8,20,10,00,00,00,00,00,80,
1100972129,00000663,false,Rx,1,8,60,28,20,0E,28,9A,16,00,
1100972346,17F00010,true,Rx,0,8,20,10,00,00,00,00,00,80,
1100972357,0000048B,false,Rx,1,8,00,00,00,00,00,80,03,00,
1100972634,17F00010,true,Rx,0,8,20,10,00,00,00,00,00,80,
1100972645,00000101,false,Rx,1,8,68,02,75,32,82,93,41,00,
1100972922,17F00010,true,Rx,0,8,20,10,00,00,00,00,00,80,
1100972934,0000031B,false,Rx,1,8,9A,0B,18,23,00,D5,10,00,
1100973210,17F00010,true,Rx,0,8,20,10,00,00,00,00,00,80,
1100973221,0000064A,false,Rx,1,4,00,00,00,00,00,00,00,00,
1100973498,17F00010,true,Rx,0,8,20,10,00,00,00,00,00,80,
1100973509,000005A0,false,Rx,1,5,57,FD,83,20,78,00,00,00,
1100973790,17F00010,true,Rx,0,8,20,10,00,00,00,00,00,80,
1100973801,000003CE,false,Rx,1,8,02,00,0E,00,00,00,60,00,
1100974074,17F00010,true,Rx,0,8,20,10,00,00,00,00,00,80,
1100974085,000003C7,false,Rx,1,8,14,10,28,00,00,30,80,00,
1100998938,17F00010,true,Rx,0,8,20,10,00,00,00,00,00,80,
1100998949,0000012B,false,Rx,1,8,8C,11,80,10,00,00,00,00,
1100999203,17F00010,true,Rx,0,8,20,10,00,00,00,00,00,80,
1100999213,0000032A,false,Rx,1,8,7C,07,00,00,00,02,00,00,
1100999491,17F00010,true,Rx,0,8,20,10,00,00,00,00,00,80,
1100999501,000003EA,false,Rx,1,8,00,00,00,10,C6,AA,E0,7B,
1100999779,17F00010,true,Rx,0,8,20,10,00,00,00,00,00,80,
1100999790,17330C10,true,Rx,1,8,33,02,03,00,0C,00,03,01,
1101000067,17F00010,true,Rx,0,8,20,10,00,00,00,00,00,80,
1101000077,1B000073,true,Rx,1,8,73,00,04,01,01,00,11,00,
1101000355,17F00010,true,Rx,0,8,20,10,00,00,00,00,00,80,
1101000367,0000031E,false,Rx,1,8,52,E4,3F,00,00,00,00,00,
1101000643,17F00010,true,Rx,0,8,20,10,00,00,00,00,00,80,
1101000653,00000107,false,Rx,1,8,84,00,FE,2E,83,5A,49,87,
1101000931,17F00010,true,Rx,0,8,20,10,00,00,00,00,00,80,
1101000942,00000107,false,Rx,1,8,84,00,FE,2E,83,5A,9E,87,
1101026367,17F00010,true,Rx,0,8,20,10,00,00,00,00,00,80,
1101026378,0000012B,false,Rx,1,8,28,12,80,10,00,00,00,00,
1101026598,17F00010,true,Rx,0,8,20,10,00,00,00,00,00,80,
1101026609,17330F10,true,Rx,1,8,43,FE,9B,00,00,03,80,00,
1101026885,17F00010,true,Rx,0,8,20,10,00,00,00,00,00,80,
1101026896,000003E5,false,Rx,1,8,F7,17,00,00,00,00,00,00,
1101027173,17F00010,true,Rx,0,8,20,10,00,00,00,00,00,80,
1101027184,000003D5,false,Rx,1,8,82,07,00,00,00,00,00,00,
1101027462,17F00010,true,Rx,0,8,20,10,00,00,00,00,00,80,
1101027482,000000FD,false,Rx,1,8,25,E5,3F,80,50,17,00,00,
1101027749,17F00010,true,Rx,0,8,20,10,00,00,00,00,00,80,
1101027760,00000101,false,Rx,1,8,03,05,7C,32,82,7B,41,00,
1101028039,17F00010,true,Rx,0,8,20,10,00,00,00,00,00,80,
1101028051,000003DC,false,Rx,1,8,E0,00,A0,26,00,08,00,00,
1101028325,17F00010,true,Rx,0,8,20,10,00,00,00,00,00,80,
1101028336,0000032A,false,Rx,1,8,3E,08,00,00,00,02,00,00,
1101053796,17F00010,true,Rx,0,8,20,10,00,00,00,00,00,80,
1101053806,000003B5,false,Rx,1,8,86,FE,00,1B,1C,7D,18,00,
1101054078,17F00010,true,Rx,0,8,20,10,00,00,00,00,00,80,
1101054089,0000031E,false,Rx,1,8,2D,E5,3F,00,00,00,00,00,
1101054368,17F00010,true,Rx,0,8,20,10,00,00,00,00,00,80,
1101054379,0000012B,false,Rx,1,8,70,13,80,10,00,00,00,00,
1101054655,17F00010,true,Rx,0,8,20,10,00,00,00,00,00,80,
1101054665,000003DA,false,Rx,1,8,22,00,00,5B,17,E4,03,00,
1101054943,17F00010,true,Rx,0,8,20,10,00,00,00,00,00,80,
1101054953,000005F0,false,Rx,1,8,FD,00,64,00,00,7E,00,00,
1101055231,17F00010,true,Rx,0,8,20,10,00,00,00,00,00,80,
1101055241,000003D1,false,Rx,1,8,02,00,00,00,00,00,00,00,
1101055519,17F00010,true,Rx,0,8,20,10,00,00,00,00,00,80,
1101055529,000003D0,false,Rx,1,8,02,00,00,00,00,00,00,00,
1101055806,17F00010,true,Rx,0,8,20,10,00,00,00,00,00,80,
1101055818,0000030C,false,Rx,1,8,E8,F2,3F,00,A0,30,00,40,
1101081246,17F00010,true,Rx,0,8,20,10,00,00,00,00,00,80,
1101081257,000003DC,false,Rx,1,8,E0,00,D0,26,00,08,00,00,
1101081498,17F00010,true,Rx,0,8,20,10,00,00,00,00,00,80,
1101081509,000003EB,false,Rx,1,8,E0,00,00,FE,00,00,00,00,
1101081786,17F00010,true,Rx,0,8,20,10,00,00,00,00,00,80,
1101081798,00000107,false,Rx,1,8,84,00,FE,30,03,5A,9D,88,
1101082074,17F00010,true,Rx,0,8,20,10,00,00,00,00,00,80,
1101082085,0000012B,false,Rx,1,8,F0,14,80,10,00,00,00,00,
1101082362,17F00010,true,Rx,0,8,20,10,00,00,00,00,00,80,
1101082373,000000FD,false,Rx,1,8,EB,E8,3F,80,7D,17,00,00,
1101082652,17F00010,true,Rx,0,8,20,10,00,00,00,00,00,80,
1101082662,00000101,false,Rx,1,8,C8,08,79,31,82,56,41,00,
1101082941,17F00010,true,Rx,0,8,20,10,00,00,00,00,00,80,
1101082951,00000658,false,Rx,1,8,33,0A,04,00,00,00,00,00,
1101083226,17F00010,true,Rx,0,8,20,10,00,00,00,00,00,80,
1101083237,0000031E,false,Rx,1,8,AA,E6,3F,00,00,00,00,00,
1101108653,17F00010,true,Rx,0,8,20,10,00,00,00,00,00,80,
1101108664,00000107,false,Rx,1,8,88,00,FE,32,03,5A,FC,88,
1101108931,17F00010,true,Rx,0,8,20,10,00,00,00,00,00,80,
1101108941,000000FD,false,Rx,1,8,C6,E9,3F,80,83,17,00,00,
1101109220,17F00010,true,Rx,0,8,20,10,00,00,00,00,00,80,
1101109231,00000101,false,Rx,1,8,84,09,74,31,82,62,41,00,
1101109507,17F00010,true,Rx,0,8,20,10,00,00,00,00,00,80,
1101109518,00000116,false,Rx,1,8,8B,08,3A,4A,89,1D,7C,FF,
1101109795,17F00010,true,Rx,0,8,20,10,00,00,00,00,00,80,
1101109805,000003BE,false,Rx,1,8,00,30,E7,01,88,80,0C,00,
1101110084,17F00010,true,Rx,0,8,20,10,00,00,00,00,00,80,
1101110095,00000040,false,Rx,1,8,19,86,00,00,80,00,00,00,
1101110371,17F00010,true,Rx,0,8,20,10,00,00,00,00,00,80,
1101110382,0000030B,false,Rx,1,8,10,0E,00,3D,08,00,C5,00,
1101110659,17F00010,true,Rx,0,8,20,10,00,00,00,00,00,80,
1101110680,000003C0,false,Rx,1,4,FE,04,03,00,00,00,00,00,
1101135738,17F00010,true,Rx,0,8,20,10,00,00,00,00,00,80,
1101135749,0000030C,false,Rx,1,8,8C,F3,3F,00,A0,30,00,40,
1101136003,17F00010,true,Rx,0,8,20,10,00,00,00,00,00,80,
1101136014,000003DB,false,Rx,1,8,50,10,00,00,07,00,01,A6,
1101136291,17F00010,true,Rx,0,8,20,10,00,00,00,00,00,80,
1101136302,00000658,false,Rx,1,8,9D,0B,04,00,00,00,00,00,
1101136579,17F00010,true,Rx,0,8,20,10,00,00,00,00,00,80,
1101136599,00000107,false,Rx,1,8,88,00,FE,35,03,5A,BB,89,
1101136867,17F00010,true,Rx,0,8,20,10,00,00,00,00,00,80,
1101136878,0000012B,false,Rx,1,8,4C,16,80,10,00,00,00,00,
1101137155,17F00010,true,Rx,0,8,20,10,00,00,00,00,00,80,
1101137167,000000FD,false,Rx,1,8,0A,EB,3F,80,A4,17,00,00,
1101137446,17F00010,true,Rx,0,8,20,10,00,00,00,00,00,80,
1101137457,00000101,false,Rx,1,8,D7,0B,77,33,82,62,41,00,
1101137731,17F00010,true,Rx,0,8,20,10,00,00,00,00,00,80,
1101137742,000003DA,false,Rx,1,8,22,00,00,A4,17,CC,03,00,
1101163191,17F00010,true,Rx,0,8,20,10,00,00,00,00,00,80,
1101163202,000003D6,false,Rx,1,8,04,00,00,00,00,00,20,00,
1101163457,17F00010,true,Rx,0,8,20,10,00,00,00,00,00,80,
1101163478,000003D0,false,Rx,1,8,02,00,00,00,00,00,00,00,
1101163745,17F00010,true,Rx,0,8,20,10,00,00,00,00,00,80,
1101163756,000003D1,false,Rx,1,8,02,00,00,00,00,00,00,00,
1101164033,17F00010,true,Rx,0,8,20,10,00,00,00,00,00,80,
1101164043,1B000010,true,Rx,1,8,10,00,04,01,29,04,00,00,
1101164321,17F00010,true,Rx,0,8,20,10,00,00,00,00,00,80,
1101164333,00000040,false,Rx,1,8,7D,87,00,00,80,00,00,00,
1101164609,17F00010,true,Rx,0,8,20,10,00,00,00,00,00,80,
1101164619,00000107,false,Rx,1,8,88,00,FE,37,83,5A,1B,8A,
1101164897,17F00010,true,Rx,0,8,20,10,00,00,00,00,00,80,
1101164907,0000030B,false,Rx,1,8,10,0F,00,3F,08,00,C6,00,
1101165185,17F00010,true,Rx,0,8,20,10,00,00,00,00,00,80,
1101165197,000000FD,false,Rx,1,8,0A,ED,3F,80,BB,17,00,00,
1101190938,17F00010,true,Rx,0,8,20,10,00,00,00,00,00,80,
1101190949,00000101,false,Rx,1,8,87,0D,76,35,82,6F,41,00,
1101191226,17F00010,true,Rx,0,8,20,10,00,00,00,00,00,80,
1101191248,00000658,false,Rx,1,8,EC,0C,04,00,00,00,00,00,
1101191514,17F00010,true,Rx,0,8,20,10,00,00,00,00,00,80,
1101191525,00000640,false,Rx,1,8,00,89,9C,C2,7F,20,04,1C,
1101191802,17F00010,true,Rx,0,8,20,10,00,00,00,00,00,80,
1101191813,000003C7,false,Rx,1,8,14,10,28,00,00,30,80,00,
1101192090,17F00010,true,Rx,0,8,20,10,00,00,00,00,00,80,
1101192101,0000030C,false,Rx,1,8,9F,F4,3F,00,A0,30,00,40,
1101192378,17F00010,true,Rx,0,8,20,10,00,00,00,00,00,80,
1101192389,17333111,true,Rx,1,8,3C,50,13,03,00,06,30,00,
1101192669,17F00010,true,Rx,0,8,20,10,00,00,00,00,00,80,
1101192680,0000032A,false,Rx,1,8,92,0B,00,00,00,02,00,00,
1101192954,17F00010,true,Rx,0,8,20,10,00,00,00,00,00,80,
1101192966,000003BE,false,Rx,1,8,00,30,E7,01,88,80,0C,00,
1101218367,17F00010,true,Rx,0,8,20,10,00,00,00,00,00,80,
1101218378,00000040,false,Rx,1,8,3F,88,00,00,80,00,00,00,
1101218586,17F00010,true,Rx,0,8,20,10,00,00,00,00,00,80,
1101218598,0000030B,false,Rx,1,8,10,00,00,3F,08,00,C7,00,
1101218874,17F00010,true,Rx,0,8,20,10,00,00,00,00,00,80,
1101218885,00000324,false,Rx,1,8,20,04,00,00,00,00,00,00,
1101219162,17F00010,true,Rx,0,8,20,10,00,00,00,00,00,80,
1101219173,0000031B,false,Rx,1,8,CA,00,E4,23,00,99,11,00,
1101219452,17F00010,true,Rx,0,8,20,10,00,00,00,00,00,80,
1101219462,000006B4,false,Rx,1,8,00,FB,A0,42,41,54,4D,42,
1101219738,17F00010,true,Rx,0,8,20,10,00,00,00,00,00,80,
1101219749,00000107,false,Rx,1,8,89,00,FE,3B,83,5A,28,8B,
1101220026,17F00010,true,Rx,0,8,20,10,00,00,00,00,00,80,
1101220037,000003E5,false,Rx,1,8,B7,19,00,00,00,00,00,00,
1101220314,17F00010,true,Rx,0,8,20,10,00,00,00,00,00,80,
1101220325,00000658,false,Rx,1,8,62,0D,04,00,00,00,00,00,
1101220602,17F00010,true,Rx,0,8,20,10,00,00,00,00,00,80,
1101220613,00000107,false,Rx,1,8,89,00,FE,3D,83,5A,7E,8B,
1101249224,17F00010,true,Rx,0,8,20,10,00,00,00,00,00,80,
1101249245,000000FD,false,Rx,1,8,81,E0,3F,80,D7,17,00,00,
1101249509,17F00010,true,Rx,0,8,20,10,00,00,00,00,00,80,
1101249519,00000101,false,Rx,1,8,CE,00,78,38,82,93,41,00,
1101249798,17F00010,true,Rx,0,8,20,10,00,00,00,00,00,80,
1101249809,0000032A,false,Rx,1,8,81,0C,00,00,00,02,00,00,
1101250085,17F00010,true,Rx,0,8,20,10,00,00,00,00,00,80,
1101250096,000003B5,false,Rx,1,8,86,FE,00,1A,1C,7D,18,00,
1101250373,17F00010,true,Rx,0,8,20,10,00,00,00,00,00,80,
1101250383,0000031E,false,Rx,1,8,DA,E9,3F,00,00,00,00,00,
1101250664,17F00010,true,Rx,0,8,20,10,00,00,00,00,00,80,
1101250675,0000030C,false,Rx,1,8,FB,F5,3F,00,A0,30,00,40,
1101250949,17F00010,true,Rx,0,8,20,10,00,00,00,00,00,80,
1101250960,000000FD,false,Rx,1,8,8B,E1,3F,80,D7,17,00,00,
1101251237,17F00010,true,Rx,0,8,20,10,00,00,00,00,00,80,
1101251249,00000101,false,Rx,1,8,02,01,78,39,82,87,41,00,
1101276653,17F00010,true,Rx,0,8,20,10,00,00,00,00,00,80,
1101276664,0000031B,false,Rx,1,8,A4,01,FC,23,00,C0,11,00,
1101276929,17F00010,true,Rx,0,8,20,10,00,00,00,00,00,80,
1101276939,000003CF,false,Rx,1,8,02,00,0E,00,00,00,60,01,
1101277218,17F00010,true,Rx,0,8,20,10,00,00,00,00,00,80,
1101277229,000003CE,false,Rx,1,8,02,00,0E,00,00,00,60,00,
1101277505,17F00010,true,Rx,0,8,20,10,00,00,00,00,00,80,
1101277515,00000583,false,Rx,1,8,00,10,05,00,00,00,54,00,
1101277793,17F00010,true,Rx,0,8,20,10,00,00,00,00,00,80,
1101277803,00000324,false,Rx,1,8,44,05,00,00,00,00,00,00,
1101278082,17F00010,true,Rx,0,8,20,10,00,00,00,00,00,80,
1101278093,000003DC,false,Rx,1,8,E0,00,5E,27,00,08,00,00,
1101278369,17F00010,true,Rx,0,8,20,10,00,00,00,00,00,80,
1101278379,00000647,false,Rx,1,8,B8,FD,FF,7F,00,00,00,D2,
1101278657,17F00010,true,Rx,0,8,20,10,00,00,00,00,00,80,
1101278678,0000012B,false,Rx,1,8,01,1B,80,10,00,00,00,00,
1101304090,17F00010,true,Rx,0,8,20,10,00,00,00,00,00,80,
1101304101,0000032A,false,Rx,1,8,E5,0D,00,00,00,02,00,00,
1101304351,17F00010,true,Rx,0,8,20,10,00,00,00,00,00,80,
1101304361,000003C7,false,Rx,1,8,FD,10,28,00,00,30,80,00,
1101304639,17F00010,true,Rx,0,8,20,10,00,00,00,00,00,80,
1101304650,0000031E,false,Rx,1,8,EE,EA,3F,00,00,00,00,00,
1101304926,17F00010,true,Rx,0,8,20,10,00,00,00,00,00,80,
1101304937,00000107,false,Rx,1,8,8A,00,FE,41,03,5B,82,8C,
1101305214,17F00010,true,Rx,0,8,20,10,00,00,00,00,00,80,
1101305235,17331110,true,Rx,1,8,34,58,FF,FF,FF,FF,FF,FF,
1101305506,17F00010,true,Rx,0,8,20,10,00,00,00,00,00,80,
1101305517,000000FD,false,Rx,1,8,C8,E3,3F,80,F9,17,00,00,
1101305790,17F00010,true,Rx,0,8,20,10,00,00,00,00,00,80,
1101305801,00000107,false,Rx,1,8,8A,00,FE,44,03,5B,D8,8C,
1101306079,17F00010,true,Rx,0,8,20,10,00,00,00,00,00,80,
1101306089,0000012B,false,Rx,1,8,44,1C,80,10,00,00,00,00,
1101331523,17F00010,true,Rx,0,8,20,10,00,00,00,00,00,80,
1101331534,000003E5,false,Rx,1,8,2F,1A,00,00,00,00,00,00,
1101331770,17F00010,true,Rx,0,8,20,10,00,00,00,00,00,80,
1101331781,00000366,false,Rx,1,8,00,00,00,00,00,00,00,00,
1101332058,17F00010,true,Rx,0,8,20,10,00,00,00,00,00,80,
1101332069,000003D5,false,Rx,1,8,8A,0A,00,00,00,00,00,00,
1101332346,17F00010,true,Rx,0,8,20,10,00,00,00,00,00,80,
1101332357,000000FD,false,Rx,1,8,D8,E4,3F,80,04,18,00,00,
1101332634,17F00010,true,Rx,0,8,20,10,00,00,00,00,00,80,
1101332645,00000101,false,Rx,1,8,C2,04,78,31,82,62,41,00,
1101332922,17F00010,true,Rx,0,8,20,10,00,00,00,00,00,80,
1101332934,000003DC,false,Rx,1,8,E0,00,EE,27,00,08,00,00,
1101333210,17F00010,true,Rx,0,8,20,10,00,00,00,00,00,80,
1101333221,00000394,false,Rx,1,8,B8,43,00,04,00,00,00,00,
1101333498,17F00010,true,Rx,0,8,20,10,00,00,00,00,00,80,
1101333509,000005F2,false,Rx,1,2,FD,00,00,00,00,00,00,00,
1101358424,17F00010,true,Rx,0,8,20,10,00,00,00,00,00,80,
1101358436,0000012B,false,Rx,1,8,10,1D,80,10,00,00,00,00,
1101358662,17F00010,true,Rx,0,8,20,10,00,00,00,00,00,80,
1101358682,17331110,true,Rx,1,5,44,51,11,2A,05,00,00,00,
1101358949,17F00010,true,Rx,0,8,20,10,00,00,00,00,00,80,
1101358960,000003DA,false,Rx,1,8,22,00,00,0A,18,AC,03,00,
1101359237,17F00010,true,Rx,0,8,20,10,00,00,00,00,00,80,
1101359249,000006B0,false,Rx,1,6,60,02,F2,02,98,59,00,00,
1101359525,17F00010,true,Rx,0,8,20,10,00,00,00,00,00,80,
1101359536,000003D0,false,Rx,1,8,02,00,00,00,00,00,00,00,
1101359815,17F00010,true,Rx,0,8,20,10,00,00,00,00,00,80,
1101359826,000003D1,false,Rx,1,8,02,00,00,00,00,00,00,00,
1101360101,17F00010,true,Rx,0,8,20,10,00,00,00,00,00,80,
1101360113,000003D6,false,Rx,1,8,06,00,00,00,00,00,20,00,
1101360389,17F00010,true,Rx,0,8,20,10,00,00,00,00,00,80,
1101360399,00000107,false,Rx,1,8,8A,00,FE,49,03,5C,DB,8D,
1101385424,17F00010,true,Rx,0,8,20,10,00,00,00,00,00,80,
1101385436,00000670,false,Rx,1,8,11,00,00,00,FE,00,00,80,
1101385699,17F00010,true,Rx,0,8,20,10,00,00,00,00,00,80,
1101385709,0000012B,false,Rx,1,8,5F,1E,80,10,00,00,00,00,
1101385987,17F00010,true,Rx,0,8,20,10,00,00,00,00,00,80,
1101385999,000000FD,false,Rx,1,8,82,E7,3F,80,26,18,00,00,
1101386275,17F00010,true,Rx,0,8,20,10,00,00,00,00,00,80,
1101386286,00000101,false,Rx,1,8,D1,07,75,36,82,6F,41,00,
1101386563,17F00010,true,Rx,0,8,20,10,00,00,00,00,00,80,
1101386573,00000658,false,Rx,1,8,84,00,04,00,00,00,00,00,
1101386852,17F00010,true,Rx,0,8,20,10,00,00,00,00,00,80,
1101386863,000003C7,false,Rx,1,8,14,10,28,00,00,30,80,00,
1101387139,17F00010,true,Rx,0,8,20,10,00,00,00,00,00,80,
1101387159,00000324,false,Rx,1,8,8C,07,00,00,00,00,00,00,
1101387427,17F00010,true,Rx,0,8,20,10,00,00,00,00,00,80,
1101387439,1B00000E,true,Rx,1,8,0E,00,44,07,01,00,0E,00,
1101412859,17F00010,true,Rx,0,8,20,10,00,00,00,00,00,80,
1101412870,000003BE,false,Rx,1,8,00,30,E7,01,88,80,0C,00,
1101413093,17F00010,true,Rx,0,8,20,10,00,00,00,00,00,80,
1101413104,00000040,false,Rx,1,8,80,8C,00,00,80,00,00,00,
1101413381,17F00010,true,Rx,0,8,20,10,00,00,00,00,00,80,
1101413401,0000030B,false,Rx,1,8,10,04,00,3F,08,00,CB,00,
1101413669,17F00010,true,Rx,0,8,20,10,00,00,00,00,00,80,
1101413681,0000012B,false,Rx,1,8,75,1F,80,10,00,00,00,00,
1101413957,17F00010,true,Rx,0,8,20,10,00,00,00,00,00,80,
1101413968,000003D4,false,Rx,1,8,23,03,82,02,00,0A,00,00,
1101414247,17F00010,true,Rx,0,8,20,10,00,00,00,00,00,80,
1101414258,17F0000C,true,Rx,1,8,20,0C,00,00,00,00,00,80,
1101414534,17F00010,true,Rx,0,8,20,10,00,00,00,00,00,80,
1101414545,0000031B,false,Rx,1,8,2E,04,8E,24,00,38,12,00,
1101414821,17F00010,true,Rx,0,8,20,10,00,00,00,00,00,80,
1101414832,000003C0,false,Rx,1,4,0E,07,03,00,00,00,00,00,
1101440290,17F00010,true,Rx,0,8,20,10,00,00,00,00,00,80,
1101440301,000006A6,false,Rx,1,2,10,00,00,00,00,00,00,00,
1101440574,17F00010,true,Rx,0,8,20,10,00,00,00,00,00,80,
1101440596,0000030C,false,Rx,1,8,71,F8,3F,00,A0,30,00,40,
1101440863,17F00010,true,Rx,0,8,20,10,00,00,00,00,00,80,
1101440873,000003DB,false,Rx,1,8,50,10,00,00,07,00,01,A6,
1101441151,17F00010,true,Rx,0,8,20,10,00,00,00,00,00,80,
1101441161,00000658,false,Rx,1,8,7E,01,04,00,00,00,00,00,
1101441440,17F00010,true,Rx,0,8,20,10,00,00,00,00,00,80,
1101441452,00000481,false,Rx,1,8,00,00,00,00,00,00,00,00,
1101441726,17F00010,true,Rx,0,8,20,10,00,00,00,00,00,80,
1101441737,00000107,false,Rx,1,8,8B,00,FE,4E,83,5C,06,8F,
1101442015,17F00010,true,Rx,0,8,20,10,00,00,00,00,00,80,
1101442025,0000012B,false,Rx,1,8,FE,10,80,10,00,00,00,00,
1101442304,17F00010,true,Rx,0,8,20,10,00,00,00,00,00,80,
1101442314,00000040,false,Rx,1,8,E4,8D,00,00,80,00,00,00,
1101467196,17F00010,true,Rx,0,8,20,10,00,00,00,00,00,80,
1101467206,00000107,false,Rx,1,8,8B,00,FE,51,03,5C,69,8F,
1101467419,17F00010,true,Rx,0,8,20,10,00,00,00,00,00,80,
1101467430,00000520,false,Rx,1,8,99,07,00,0C,00,AF,02,00,
1101467706,17F00010,true,Rx,0,8,20,10,00,00,00,00,00,80,
1101467717,0000030B,false,Rx,1,8,10,05,00,3F,08,00,CC,00,
1101467994,17F00010,true,Rx,0,8,20,10,00,00,00,00,00,80,
1101468005,0000065E,false,Rx,1,8,00,00,DE,00,00,00,00,00,
1101468282,17F00010,true,Rx,0,8,20,10,00,00,00,00,00,80,
1101468293,17F00014,true,Rx,1,8,20,14,00,00,00,00,00,80,
1101468573,17F00010,true,Rx,0,8,20,10,00,00,00,00,00,80,
1101468584,00000663,false,Rx,1,8,60,28,20,0E,28,9A,16,00,
1101468858,17F00010,true,Rx,0,8,20,10,00,00,00,00,00,80,
1101468869,0000048B,false,Rx,1,8,00,00,00,00,00,80,03,00,
1101469146,17F00010,true,Rx,0,8,20,10,00,00,00,00,00,80,
1101469157,00000665,false,Rx,1,7,01,00,00,00,00,00,00,00,
1101494538,17F00010,true,Rx,0,8,20,10,00,00,00,00,00,80,
1101494549,00000658,false,Rx,1,8,3E,02,04,00,00,00,00,00,
1101494778,17F00010,true,Rx,0,8,20,10,00,00,00,00,00,80,
1101494789,00000184,false,Rx,1,8,76,0F,00,00,00,00,00,00,
1101495066,17F00010,true,Rx,0,8,20,10,00,00,00,00,00,80,
1101495077,00000643,false,Rx,1,8,00,02,03,00,00,00,00,00,
1101495354,17F00010,true,Rx,0,8,20,10,00,00,00,00,00,80,
1101495366,000003C7,false,Rx,1,8,FD,10,28,00,00,30,80,00,
1101495642,17F00010,true,Rx,0,8,20,10,00,00,00,00,00,80,
1101495653,0000030C,false,Rx,1,8,15,F9,3F,00,A0,30,00,40,
1101495930,17F00010,true,Rx,0,8,20,10,00,00,00,00,00,80,
1101495941,0000032A,false,Rx,1,8,0B,01,00,00,00,02,00,00,
1101496219,17F00010,true,Rx,0,8,20,10,00,00,00,00,00,80,
1101496230,0000031E,false,Rx,1,8,B7,EE,3F,00,00,00,00,00,
1101496506,17F00010,true,Rx,0,8,20,10,00,00,00,00,00,80,
1101496517,00000324,false,Rx,1,8,AA,09,00,00,00,00,00,00,
1101521967,17F00010,true,Rx,0,8,20,10,00,00,00,00,00,80,
1101521978,0000031B,false,Rx,1,8,9E,06,EA,24,00,8A,12,00,
1101522245,17F00010,true,Rx,0,8,20,10,00,00,00,00,00,80,
1101522256,00000107,false,Rx,1,8,8B,00,FE,54,03,5C,94,90,
1101522534,17F00010,true,Rx,0,8,20,10,00,00,00,00,00,80,
1101522545,17330F10,true,Rx,1,8,A0,12,43,D9,3C,00,00,FF,
1101522821,17F00010,true,Rx,0,8,20,10,00,00,00,00,00,80,
1101522841,000003E5,false,Rx,1,8,57,1C,00,00,00,00,00,00,
1101523109,17F00010,true,Rx,0,8,20,10,00,00,00,00,00,80,
1101523120,000003D5,false,Rx,1,8,1A,0C,00,00,00,00,00,00,
1101523400,17F00010,true,Rx,0,8,20,10,00,00,00,00,00,80,
1101523411,000000FD,false,Rx,1,8,EF,EE,3F,80,75,18,00,00,
1101523685,17F00010,true,Rx,0,8,20,10,00,00,00,00,00,80,
1101523696,00000101,false,Rx,1,8,E8,0E,76,33,82,56,41,00,
1101523973,17F00010,true,Rx,0,8,20,10,00,00,00,00,00,80,
1101523984,00000107,false,Rx,1,8,8B,00,FE,56,03,5C,F8,90,
1101549413,17F00010,true,Rx,0,8,20,10,00,00,00,00,00,80,
1101549424,0000032A,false,Rx,1,8,A7,02,00,00,00,02,00,00,
1101549692,17F00010,true,Rx,0,8,20,10,00,00,00,00,00,80,
1101549714,000000FD,false,Rx,1,8,B1,EF,3F,80,7A,18,00,00,
1101549980,17F00010,true,Rx,0,8,20,10,00,00,00,00,00,80,
1101549991,00000101,false,Rx,1,8,93,0F,78,33,82,6F,41,00,
1101550268,17F00010,true,Rx,0,8,20,10,00,00,00,00,00,80,
1101550279,000003B5,false,Rx,1,8,86,FE,00,19,1C,7D,18,00,
1101550556,17F00010,true,Rx,0,8,20,10,00,00,00,00,00,80,
1101550568,1B000046,true,Rx,1,8,46,00,04,01,01,00,00,00,
1101550844,17F00010,true,Rx,0,8,20,10,00,00,00,00,00,80,
1101550855,000005E9,false,Rx,1,8,00,59,13,00,00,00,00,00,
1101551132,17F00010,true,Rx,0,8,20,10,00,00,00,00,00,80,
1101551143,00000668,false,Rx,1,8,02,00,00,43,00,00,C6,29,
1101551422,17F00010,true,Rx,0,8,20,10,00,00,00,00,00,80,
1101551434,000005A0,false,Rx,1,5,5F,FD,83,20,78,00,00,00,
1101576567,17F00010,true,Rx,0,8,20,10,00,00,00,00,00,80,
1101576578,000003CE,false,Rx,1,8,02,00,0E,00,00,00,60,00,
1101576800,17F00010,true,Rx,0,8,20,10,00,00,00,00,00,80,
1101576810,000003CF,false,Rx,1,8,02,00,0E,00,00,00,60,01,
1101577086,17F00010,true,Rx,0,8,20,10,00,00,00,00,00,80,
1101577097,17330F10,true,Rx,1,8,E0,FF,00,3C,2F,00,00,00,
1101577374,17F00010,true,Rx,0,8,20,10,00,00,00,00,00,80,
1101577385,00000324,false,Rx,1,8,06,0A,00,00,00,00,00,00,
1101577663,17F00010,true,Rx,0,8,20,10,00,00,00,00,00,80,
1101577673,000003DC,false,Rx,1,8,E0,00,C4,28,00,08,00,00,
1101577953,17F00010,true,Rx,0,8,20,10,00,00,00,00,00,80,
1101577964,000003EB,false,Rx,1,8,E0,00,00,FE,00,00,00,00,
1101578239,17F00010,true,Rx,0,8,20,10,00,00,00,00,00,80,
1101578251,00000107,false,Rx,1,8,8B,00,FE,59,03,5C,BF,91,
1101578526,17F00010,true,Rx,0,8,20,10,00,00,00,00,00,80,
1101578537,000003EA,false,Rx,1,8,00,00,00,10,46,AB,DE,7B,
1101604009,17F00010,true,Rx,0,8,20,10,00,00,00,00,00,80,
1101604020,1B000073,true,Rx,1,8,73,00,04,01,01,00,11,00,
1101604291,17F00010,true,Rx,0,8,20,10,00,00,00,00,00,80,
1101604302,0000031E,false,Rx,1,8,CD,E0,3F,00,00,00,00,00,
1101604579,17F00010,true,Rx,0,8,20,10,00,00,00,00,00,80,
1101604590,00000107,false,Rx,1,8,8B,00,FE,5B,83,5B,18,92,
1101604867,17F00010,true,Rx,0,8,20,10,00,00,00,00,00,80,
1101604887,1B000014,true,Rx,1,8,14,00,04,01,01,00,00,00,
1101605155,17F00010,true,Rx,0,8,20,10,00,00,00,00,00,80,
1101605167,1B00000C,true,Rx,1,8,0C,00,04,01,01,00,04,00,
1101605444,17F00010,true,Rx,0,8,20,10,00,00,00,00,00,80,
1101605455,000000FD,false,Rx,1,8,DA,E2,3F,80,AD,18,00,00,
1101605731,17F00010,true,Rx,0,8,20,10,00,00,00,00,00,80,
1101605742,00000101,false,Rx,1,8,4A,02,77,37,82,4A,41,00,
1101606020,17F00010,true,Rx,0,8,20,10,00,00,00,00,00,80,
1101606040,17330F10,true,Rx,1,8,E1,64,05,00,00,12,02,00,
1101631424,17F00010,true,Rx,0,8,20,10,00,00,00,00,00,80,
1101631436,000003E5,false,Rx,1,8,63,1D,00,00,00,00,00,00,
1101631685,17F00010,true,Rx,0,8,20,10,00,00,00,00,00,80,
1101631696,000003D5,false,Rx,1,8,3E,0D,00,00,00,00,00,00,
1101631973,17F00010,true,Rx,0,8,20,10,00,00,00,00,00,80,
1101631984,000000FD,false,Rx,1,8,AF,E3,3F,80,AD,18,00,00,
1101632262,17F00010,true,Rx,0,8,20,10,00,00,00,00,00,80,
1101632282,00000101,false,Rx,1,8,7A,03,77,36,82,4A,41,00,
1101632549,17F00010,true,Rx,0,8,20,10,00,00,00,00,00,80,
1101632560,000003DC,false,Rx,1,8,E0,00,EA,28,00,08,00,00,
1101632839,17F00010,true,Rx,0,8,20,10,00,00,00,00,00,80,
1101632851,00000551,false,Rx,1,8,E1,22,E4,DA,00,00,00,00,
1101633125,17F00010,true,Rx,0,8,20,10,00,00,00,00,00,80,
1101633136,00000324,false,Rx,1,8,62,0B,00,00,00,00,00,00,
1101633413,17F00010,true,Rx,0,8,20,10,00,00,00,00,00,80,
1101633424,0000012B,false,Rx,1,8,69,17,80,10,00,00,00,00,
1101658868,17F00010,true,Rx,0,8,20,10,00,00,00,00,00,80,
1101658878,17330510,true,Rx,1,8,31,42,03,00,05,00,03,01,
1101659132,17F00010,true,Rx,0,8,20,10,00,00,00,00,00,80,
1101659143,000003DA,false,Rx,1,8,22,00,00,B8,18,A4,03,00,
1101659422,17F00010,true,Rx,0,8,20,10,00,00,00,00,00,80,
1101659434,000005F0,false,Rx,1,8,FD,00,64,00,00,7E,00,00,
1101659708,17F00010,true,Rx,0,8,20,10,00,00,00,00,00,80,
1101659719,000003D1,false,Rx,1,8,02,00,00,00,00,00,00,00,
1101659996,17F00010,true,Rx,0,8,20,10,00,00,00,00,00,80,
1101660007,000003D0,false,Rx,1,8,02,00,00,00,00,00,00,00,
1101660285,17F00010,true,Rx,0,8,20,10,00,00,00,00,00,80,
1101660295,000003D6,false,Rx,1,8,09,00,00,00,00,00,20,00,
1101660572,17F00010,true,Rx,0,8,20,10,00,00,00,00,00,80,
1101660583,000005E1,false,Rx,1,8,A6,00,00,00,00,00,00,00,
1101660860,17F00010,true,Rx,0,8,20,10,00,00,00,00,00,80,
1101660871,00000107,false,Rx,1,8,8B,00,FE,61,03,5B,7D,93,
1101686624,17F00010,true,Rx,0,8,20,10,00,00,00,00,00,80,
1101686635,0000012B,false,Rx,1,8,BC,18,80,10,00,00,00,00,
1101686874,17F00010,true,Rx,0,8,20,10,00,00,00,00,00,80,
1101686885,000000FD,false,Rx,1,8,B6,E6,3F,80,D4,18,00,00,
1101687162,17F00010,true,Rx,0,8,20,10,00,00,00,00,00,80,
1101687173,00000101,false,Rx,1,8,26,06,77,37,82,6F,41,00,
1101687451,17F00010,true,Rx,0,8,20,10,00,00,00,00,00,80,
1101687462,00000658,false,Rx,1,8,91,06,04,00,00,00,00,00,
1101687738,17F00010,true,Rx,0,8,20,10,00,00,00,00,00,80,
1101687749,00000640,false,Rx,1,8,00,89,9C,C2,7F,20,04,1C,
1101688029,17F00010,true,Rx,0,8,20,10,00,00,00,00,00,80,
1101688040,00000641,false,Rx,1,8,19,1E,1F,52,14,0C,51,42,
1101688314,17F00010,true,Rx,0,8,20,10,00,00,00,00,00,80,
1101688335,000003C7,false,Rx,1,8,FD,10,28,00,00,30,80,00,
1101688602,17F00010,true,Rx,0,8,20,10,00,00,00,00,00,80,
1101688613,00000101,false,Rx,1,8,60,07,79,39,82,6F,41,00,
1101714053,17F00010,true,Rx,0,8,20,10,00,00,00,00,00,80,
1101714064,00000116,false,Rx,1,8,41,06,35,30,61,BB,F2,FF,
1101714341,17F00010,true,Rx,0,8,20,10,00,00,00,00,00,80,
1101714352,000003BE,false,Rx,1,8,00,30,E7,01,88,80,0C,00,
1101714630,17F00010,true,Rx,0,8,20,10,00,00,00,00,00,80,
1101714641,00000040,false,Rx,1,8,A6,82,00,00,80,00,00,00,
1101714917,17F00010,true,Rx,0,8,20,10,00,00,00,00,00,80,
1101714927,0000030B,false,Rx,1,8,10,0A,00,42,08,00,D1,00,
1101715205,17F00010,true,Rx,0,8,20,10,00,00,00,00,00,80,
1101715216,0000012B,false,Rx,1,8,B4,19,80,10,00,00,00,00,
1101715493,17F00010,true,Rx,0,8,20,10,00,00,00,00,00,80,
1101715504,0000031B,false,Rx,1,8,BE,0A,8C,25,00,2E,13,00,
1101715781,17F00010,true,Rx,0,8,20,10,00,00,00,00,00,80,
1101715801,00000107,false,Rx,1,8,8B,00,FE,64,03,5B,45,94,
1101716069,17F00010,true,Rx,0,8,20,10,00,00,00,00,00,80,
1101716081,0000030C,false,Rx,1,8,AA,FD,3F,00,A0,30,00,40,
1101741481,17F00010,true,Rx,0,8,20,10,00,00,00,00,00,80,
1101741492,000003C0,false,Rx,1,4,0A,0A,03,00,00,00,00,00,
1101741761,17F00010,true,Rx,0,8,20,10,00,00,00,00,00,80,
1101741771,000003DB,false,Rx,1,8,50,10,00,00,07,00,01,A6,
1101742050,17F00010,true,Rx,0,8,20,10,00,00,00,00,00,80,
1101742061,00000658,false,Rx,1,8,64,07,04,00,00,00,00,00,
1101742337,17F00010,true,Rx,0,8,20,10,00,00,00,00,00,80,
1101742357,00000107,false,Rx,1,8,8B,00,FE,66,03,5B,A8,94,
1101742625,17F00010,true,Rx,0,8,20,10,00,00,00,00,00,80,
1101742635,0000012B,false,Rx,1,8,A4,1A,80,10,00,00,00,00,
1101742916,17F00010,true,Rx,0,8,20,10,00,00,00,00,00,80,
1101742927,000000FD,false,Rx,1,8,F4,E9,3F,80,EB,18,00,00,
1101743201,17F00010,true,Rx,0,8,20,10,00,00,00,00,00,80,
1101743211,00000101,false,Rx,1,8,5A,09,78,3A,82,56,41,00,
1101743489,17F00010,true,Rx,0,8,20,10,00,00,00,00,00,80,
1101743499,1B000010,true,Rx,1,8,10,00,04,01,29,04,00,00,
1101768567,17F00010,true,Rx,0,8,20,10,00,00,00,00,00,80,
1101768578,00000040,false,Rx,1,8,C2,83,00,00,80,00,00,00,
1101768833,17F00010,true,Rx,0,8,20,10,00,00,00,00,00,80,
1101768853,00000107,false,Rx,1,8,8B,00,FE,68,03,5B,0C,95,
1101769121,17F00010,true,Rx,0,8,20,10,00,00,00,00,00,80,
1101769133,0000030B,false,Rx,1,8,10,0B,00,42,08,00,D2,00,
1101769409,17F00010,true,Rx,0,8,20,10,00,00,00,00,00,80,
1101769419,00000663,false,Rx,1,8,60,28,20,0E,29,9A,16,00,
1101769697,17F00010,true,Rx,0,8,20,10,00,00,00,00,00,80,
1101769707,0000048B,false,Rx,1,8,00,00,00,00,00,80,03,00,
1101769985,17F00010,true,Rx,0,8,20,10,00,00,00,00,00,80,
1101769996,000000FD,false,Rx,1,8,53,EA,3F,80,FC,18,00,00,
1101770273,17F00010,true,Rx,0,8,20,10,00,00,00,00,00,80,
1101770283,00000101,false,Rx,1,8,91,0A,79,3B,82,4A,41,00,
1101770561,17F00010,true,Rx,0,8,20,10,00,00,00,00,00,80,
1101770571,00000658,false,Rx,1,8,E5,08,04,00,00,00,00,00,
1101795996,17F00010,true,Rx,0,8,20,10,00,00,00,00,00,80,
1101796006,00000647,false,Rx,1,8,B8,FD,FF,7F,00,00,00,23,
1101796254,17F00010,true,Rx,0,8,20,10,00,00,00,00,00,80,
1101796265,000003C7,false,Rx,1,8,14,10,28,00,00,30,80,00,
1101796543,17F00010,true,Rx,0,8,20,10,00,00,00,00,00,80,
1101796553,0000030C,false,Rx,1,8,06,FE,3F,00,A0,30,00,40,
1101796831,17F00010,true,Rx,0,8,20,10,00,00,00,00,00,80,
1101796841,0000032A,false,Rx,1,8,7C,07,00,00,00,02,00,00,
1101797119,17F00010,true,Rx,0,8,20,10,00,00,00,00,00,80,
1101797129,000003EA,false,Rx,1,8,00,00,00,10,06,AA,DB,7B,
1101797416,17F00010,true,Rx,0,8,20,10,00,00,00,00,00,80,
1101797428,17332910,true,Rx,1,5,3A,56,00,FF,FF,00,00,00,
1101797694,17F00010,true,Rx,0,8,20,10,00,00,00,00,00,80,
1101797715,1B000073,true,Rx,1,8,73,00,04,01,01,00,11,00,
1101797982,17F00010,true,Rx,0,8,20,10,00,00,00,00,00,80,
1101797993,17330710,true,Rx,1,3,31,C4,0A,00,00,00,00,00,
1101822741,17F00010,true,Rx,0,8,20,10,00,00,00,00,00,80,
1101822752,000006B4,false,Rx,1,8,02,5A,31,39,30,36,39,36,
1101823004,17F00010,true,Rx,0,8,20,10,00,00,00,00,00,80,
1101823015,00000107,false,Rx,1,8,8B,00,FE,6C,83,5A,36,96,
1101823292,17F00010,true,Rx,0,8,20,10,00,00,00,00,00,80,
1101823314,17330F10,true,Rx,1,6,43,F9,C0,03,00,01,00,00,
1101823581,17F00010,true,Rx,0,8,20,10,00,00,00,00,00,80,
1101823591,000003E5,false,Rx,1,8,D1,1F,00,00,00,00,00,00,
1101823868,17F00010,true,Rx,0,8,20,10,00,00,00,00,00,80,
1101823879,000003D5,false,Rx,1,8,E7,0F,00,00,00,00,00,00,
1101824156,17F00010,true,Rx,0,8,20,10,00,00,00,00,00,80,
1101824168,000000FD,false,Rx,1,8,F6,ED,3F,80,23,19,00,00,
1101824444,17F00010,true,Rx,0,8,20,10,00,00,00,00,00,80,
1101824455,00000101,false,Rx,1,8,32,0D,76,39,82,3E,41,00,
1101824732,17F00010,true,Rx,0,8,20,10,00,00,00,00,00,80,
1101824743,000000FD,false,Rx,1,8,87,EE,3F,80,29,19,00,00,
1101849996,17F00010,true,Rx,0,8,20,10,00,00,00,00,00,80,
1101850006,00000101,false,Rx,1,8,B7,0E,76,37,82,3E,41,00,
1101850277,17F00010,true,Rx,0,8,20,10,00,00,00,00,00,80,
1101850287,0000032A,false,Rx,1,8,3E,08,00,00,00,02,00,00,
1101850566,17F00010,true,Rx,0,8,20,10,00,00,00,00,00,80,
1101850577,000003B5,false,Rx,1,8,86,FE,00,17,1C,7D,18,00,
1101850853,17F00010,true,Rx,0,8,20,10,00,00,00,00,00,80,
1101850864,17F00046,true,Rx,1,8,20,46,00,00,00,00,00,80,
1101851141,17F00010,true,Rx,0,8,20,10,00,00,00,00,00,80,
1101851162,17330910,true,Rx,1,4,32,53,00,01,00,00,00,00,
1101851434,17F00010,true,Rx,0,8,20,10,00,00,00,00,00,80,
1101851445,0000031E,false,Rx,1,8,2D,E5,3F,00,00,00,00,00,
1101851717,17F00010,true,Rx,0,8,20,10,00,00,00,00,00,80,
1101851728,0000030C,false,Rx,1,8,62,FF,3F,00,A0,30,00,40,
1101852005,17F00010,true,Rx,0,8,20,10,00,00,00,00,00,80,
1101852016,000003CF,false,Rx,1,8,02,00,0E,00,00,00,60,01,
1101877103,17F00010,true,Rx,0,8,20,10,00,00,00,00,00,80,
1101877114,000003CE,false,Rx,1,8,02,00,0E,00,00,00,60,00,
1101877349,17F00010,true,Rx,0,8,20,10,00,00,00,00,00,80,
1101877360,00000324,false,Rx,1,8,DD,0F,00,00,00,00,00,00,
1101877637,17F00010,true,Rx,0,8,20,10,00,00,00,00,00,80,
1101877649,000003DC,false,Rx,1,8,E0,00,E6,29,00,08,00,00,
1101877925,17F00010,true,Rx,0,8,20,10,00,00,00,00,00,80,
1101877936,000003EB,false,Rx,1,8,E0,00,00,FE,00,00,00,00,
1101878213,17F00010,true,Rx,0,8,20,10,00,00,00,00,00,80,
1101878224,00000107,false,Rx,1,8,8B,00,FE,71,83,5A,5F,97,
1101878501,17F00010,true,Rx,0,8,20,10,00,00,00,00,00,80,
1101878513,00000670,false,Rx,1,8,11,00,00,00,FE,00,00,80,
1101878789,17F00010,true,Rx,0,8,20,10,00,00,00,00,00,80,
1101878799,000000FD,false,Rx,1,8,F3,E0,3F,80,45,19,00,00,
1101879077,17F00010,true,Rx,0,8,20,10,00,00,00,00,00,80,
1101879088,17330A10,true,Rx,1,4,32,95,00,00,00,00,00,00,
1101904167,17F00010,true,Rx,0,8,20,10,00,00,00,00,00,80,
1101904178,0000031E,false,Rx,1,8,AA,E6,3F,00,00,00,00,00,
1101904421,17F00010,true,Rx,0,8,20,10,00,00,00,00,00,80,
1101904432,00000107,false,Rx,1,8,8B,00,FE,73,83,5A,C2,97,
1101904709,17F00010,true,Rx,0,8,20,10,00,00,00,00,00,80,
1101904720,000000FD,false,Rx,1,8,F8,E1,3F,80,56,19,00,00,
1101904998,17F00010,true,Rx,0,8,20,10,00,00,00,00,00,80,
1101905009,00000101,false,Rx,1,8,E7,01,78,39,82,62,41,00,
1101905285,17F00010,true,Rx,0,8,20,10,00,00,00,00,00,80,
1101905296,00000116,false,Rx,1,8,06,00,DC,CC,23,87,21,FF,
1101905575,17F00010,true,Rx,0,8,20,10,00,00,00,00,00,80,
1101905586,000003BE,false,Rx,1,8,00,30,E7,01,88,80,0C,00,
1101905862,17F00010,true,Rx,0,8,20,10,00,00,00,00,00,80,
1101905882,00000040,false,Rx,1,8,19,86,00,00,80,00,00,00,
1101906149,17F00010,true,Rx,0,8,20,10,00,00,00,00,00,80,
1101906159,000000FD,false,Rx,1,8,73,E2,3F,80,66,19,00,00,
1101931602,17F00010,true,Rx,0,8,20,10,00,00,00,00,00,80,
1101931612,00000101,false,Rx,1,8,27,02,75,38,82,62,41,00,
1101931868,17F00010,true,Rx,0,8,20,10,00,00,00,00,00,80,
1101931879,000003DC,false,Rx,1,8,E0,00,16,2A,00,08,00,00,
1101932156,17F00010,true,Rx,0,8,20,10,00,00,00,00,00,80,
1101932168,17331310,true,Rx,1,3,34,D2,00,00,00,00,00,00,
1101932452,17F00010,true,Rx,0,8,20,10,00,00,00,00,00,80,
1101932463,17331210,true,Rx,1,5,34,92,20,A2,00,00,00,00,
1101932732,17F00010,true,Rx,0,8,20,10,00,00,00,00,00,80,
1101932753,000003C0,false,Rx,1,4,C5,0C,03,00,00,00,00,00,
1101933022,17F00010,true,Rx,0,8,20,10,00,00,00,00,00,80,
1101933032,00000324,false,Rx,1,8,9F,00,00,00,00,00,00,00,
1101933308,17F00010,true,Rx,0,8,20,10,00,00,00,00,00,80,
1101933319,000003DB,false,Rx,1,8,50,10,00,00,07,00,01,A6,
1101933596,17F00010,true,Rx,0,8,20,10,00,00,00,00,00,80,
1101933607,000005F2,false,Rx,1,2,FD,00,00,00,00,00,00,00,
1101957824,17F00010,true,Rx,0,8,20,10,00,00,00,00,00,80,
1101957835,0000012B,false,Rx,1,8,8C,11,80,10,00,00,00,00,
1101958111,17F00010,true,Rx,0,8,20,10,00,00,00,00,00,80,
1101958121,000003DA,false,Rx,1,8,22,00,00,6C,19,94,03,00,
1101958400,17F00010,true,Rx,0,8,20,10,00,00,00,00,00,80,
1101958411,17F0000E,true,Rx,1,8,20,0E,00,00,00,00,00,80,
1101958687,17F00010,true,Rx,0,8,20,10,00,00,00,00,00,80,
1101958697,000003D0,false,Rx,1,8,02,00,00,00,00,00,00,00,
1101958974,17F00010,true,Rx,0,8,20,10,00,00,00,00,00,80,
1101958996,000003D1,false,Rx,1,8,02,00,00,00,00,00,00,00,
1101959265,17F00010,true,Rx,0,8,20,10,00,00,00,00,00,80,
1101959276,000003D6,false,Rx,1,8,0C,00,00,00,00,00,20,00,
1101959550,17F00010,true,Rx,0,8,20,10,00,00,00,00,00,80,
1101959561,1B000010,true,Rx,1,8,10,00,04,01,29,04,00,00,
1101959838,17F00010,true,Rx,0,8,20,10,00,00,00,00,00,80,
1101959850,17F00073,true,Rx,1,8,20,73,00,00,00,FF,00,80,
1101985262,17F00010,true,Rx,0,8,20,10,00,00,00,00,00,80,
1101985272,00000107,false,Rx,1,8,8B,00,FE,7A,83,5A,4B,99,
1101985530,17F00010,true,Rx,0,8,20,10,00,00,00,00,00,80,
1101985541,00000585,false,Rx,1,8,0C,3C,0A,7F,12,00,00,00,
1101985819,17F00010,true,Rx,0,8,20,10,00,00,00,00,00,80,
1101985830,0000012B,false,Rx,1,8,28,12,80,10,00,00,00,00,
1101986106,17F00010,true,Rx,0,8,20,10,00,00,00,00,00,80,
1101986117,000000FD,false,Rx,1,8,EF,E5,3F,80,83,19,00,00,
1101986394,17F00010,true,Rx,0,8,20,10,00,00,00,00,00,80,
1101986405,00000101,false,Rx,1,8,CB,05,76,36,82,87,41,00,
1101986682,17F00010,true,Rx,0,8,20,10,00,00,00,00,00,80,
1101986693,00000658,false,Rx,1,8,EC,0C,04,00,00,00,00,00,
1101986970,17F00010,true,Rx,0,8,20,10,00,00,00,00,00,80,
1101986981,000003C7,false,Rx,1,8,14,10,28,00,00,30,80,00,
1101987258,17F00010,true,Rx,0,8,20,10,00,00,00,00,00,80,
1101987269,1B00000E,true,Rx,1,8,0E,00,44,07,01,00,0E,00,
1102012681,17F00010,true,Rx,0,8,20,10,00,00,00,00,00,80,
1102012692,000003BE,false,Rx,1,8,00,30,E7,01,88,80,0C,00,
1102012963,17F00010,true,Rx,0,8,20,10,00,00,00,00,00,80,
1102012974,00000040,false,Rx,1,8,3F,88,00,00,80,00,00,00,
1102013252,17F00010,true,Rx,0,8,20,10,00,00,00,00,00,80,
1102013263,0000030B,false,Rx,1,8,10,00,00,42,08,00,D6,00,
1102013539,17F00010,true,Rx,0,8,20,10,00,00,00,00,00,80,
1102013549,0000012B,false,Rx,1,8,70,13,80,10,00,00,00,00,
1102013827,17F00010,true,Rx,0,8,20,10,00,00,00,00,00,80,
1102013837,0000031B,false,Rx,1,8,08,00,AC,26,00,2A,14,00,
1102014118,17F00010,true,Rx,0,8,20,10,00,00,00,00,00,80,
1102014129,000006B4,false,Rx,1,8,00,FB,A0,42,41,54,4D,42,
1102014403,17F00010,true,Rx,0,8,20,10,00,00,00,00,00,80,
1102014413,00000107,false,Rx,1,8,8B,00,FE,7D,83,5A,11,9A,
1102014691,17F00010,true,Rx,0,8,20,10,00,00,00,00,00,80,
1102014701,000003C0,false,Rx,1,4,70,0D,03,00,00,00,00,00,
1102039767,17F00010,true,Rx,0,8,20,10,00,00,00,00,00,80,
1102039778,0000030C,false,Rx,1,8,E8,F2,3F,00,A0,30,00,40,
1102040035,17F00010,true,Rx,0,8,20,10,00,00,00,00,00,80,
1102040045,000003DB,false,Rx,1,8,50,10,00,00,07,00,01,A6,
1102040323,17F00010,true,Rx,0,8,20,10,00,00,00,00,00,80,
1102040335,00000658,false,Rx,1,8,62,0D,04,00,00,00,00,00,
1102040611,17F00010,true,Rx,0,8,20,10,00,00,00,00,00,80,
1102040621,00000107,false,Rx,1,8,8B,00,FE,7E,83,5A,73,9A,
1102040899,17F00010,true,Rx,0,8,20,10,00,00,00,00,00,80,
1102040919,0000012B,false,Rx,1,8,F0,14,80,10,00,00,00,00,
1102041187,17F00010,true,Rx,0,8,20,10,00,00,00,00,00,80,
1102041199,000000FD,false,Rx,1,8,AF,E8,3F,80,A4,19,00,00,
1102041475,17F00010,true,Rx,0,8,20,10,00,00,00,00,00,80,
1102041486,00000101,false,Rx,1,8,10,08,75,32,82,7B,41,00,
1102041763,17F00010,true,Rx,0,8,20,10,00,00,00,00,00,80,
1102041774,000005E1,false,Rx,1,8,A6,00,00,00,00,00,00,00,
1102067196,17F00010,true,Rx,0,8,20,10,00,00,00,00,00,80,
1102067206,00000040,false,Rx,1,8,5B,89,00,00,80,00,00,00,
1102067430,17F00010,true,Rx,0,8,20,10,00,00,00,00,00,80,
1102067442,00000520,false,Rx,1,8,13,0A,00,0C,00,AF,02,00,
1102067717,17F00010,true,Rx,0,8,20,10,00,00,00,00,00,80,
1102067728,00000107,false,Rx,1,8,8B,00,FE,80,03,5A,D6,9A,
1102068005,17F00010,true,Rx,0,8,20,10,00,00,00,00,00,80,
1102068026,0000030B,false,Rx,1,8,10,01,00,42,08,00,D8,00,
1102068293,17F00010,true,Rx,0,8,20,10,00,00,00,00,00,80,
1102068304,00000663,false,Rx,1,8,60,28,20,0E,28,9A,16,00,
1102068593,17F00010,true,Rx,0,8,20,10,00,00,00,00,00,80,
1102068604,0000048B,false,Rx,1,8,00,00,00,00,00,80,03,00,
1102068869,17F00010,true,Rx,0,8,20,10,00,00,00,00,00,80,
1102068881,000000FD,false,Rx,1,8,F9,E9,3F,80,AA,19,00,00,
1102069157,17F00010,true,Rx,0,8,20,10,00,00,00,00,00,80,
1102069168,00000658,false,Rx,1,8,F4,0E,04,00,00,00,00,00,
1102094624,17F00010,true,Rx,0,8,20,10,00,00,00,00,00,80,
1102094635,000003C7,false,Rx,1,8,FD,10,28,00,00,30,80,00,
1102094911,17F00010,true,Rx,0,8,20,10,00,00,00,00,00,80,
1102094921,0000030C,false,Rx,1,8,8C,F3,3F,00,A0,30,00,40,
1102095200,17F00010,true,Rx,0,8,20,10,00,00,00,00,00,80,
1102095210,0000032A,false,Rx,1,8,E5,0D,00,00,00,02,00,00,
1102095486,17F00010,true,Rx,0,8,20,10,00,00,00,00,00,80,
1102095497,0000031E,false,Rx,1,8,EE,EA,3F,00,00,00,00,00,
1102095774,17F00010,true,Rx,0,8,20,10,00,00,00,00,00,80,
1102095785,00000107,false,Rx,1,8,8B,00,FE,82,03,5A,9B,9B,
1102096063,17F00010,true,Rx,0,8,20,10,00,00,00,00,00,80,
1102096073,0000012B,false,Rx,1,8,4C,16,80,10,00,00,00,00,
1102096351,17F00010,true,Rx,0,8,20,10,00,00,00,00,00,80,
1102096361,000000FD,false,Rx,1,8,03,EB,3F,80,C6,19,00,00,
1102096639,17F00010,true,Rx,0,8,20,10,00,00,00,00,00,80,
1102096650,0000031B,false,Rx,1,8,E1,02,F0,26,00,80,14,00,
1102122053,17F00010,true,Rx,0,8,20,10,00,00,00,00,00,80,
1102122064,00000107,false,Rx,1,8,8B,00,FE,84,03,5A,FD,9B,
1102122330,17F00010,true,Rx,0,8,20,10,00,00,00,00,00,80,
1102122341,0000064E,false,Rx,1,8,00,00,00,00,00,00,00,00,
1102122619,17F00010,true,Rx,0,8,20,10,00,00,00,00,00,80,
1102122630,17330F10,true,Rx,1,8,F1,59,00,00,00,A8,02,00,
1102122906,17F00010,true,Rx,0,8,20,10,00,00,00,00,00,80,
1102122917,000003E5,false,Rx,1,8,A6,12,00,00,00,00,00,00,
1102123194,17F00010,true,Rx,0,8,20,10,00,00,00,00,00,80,
1102123205,000003D5,false,Rx,1,8,21,02,00,00,00,00,00,00,
1102123485,17F00010,true,Rx,0,8,20,10,00,00,00,00,00,80,
1102123496,000000FD,false,Rx,1,8,71,EC,3F,80,D1,19,00,00,
1102123770,17F00010,true,Rx,0,8,20,10,00,00,00,00,00,80,
1102123781,00000101,false,Rx,1,8,80,0C,75,32,82,4A,41,00,
1102124058,17F00010,true,Rx,0,8,20,10,00,00,00,00,00,80,
1102124069,00000107,false,Rx,1,8,8B,00,FE,86,03,5A,5E,9C,
1102149495,17F00010,true,Rx,0,8,20,10,00,00,00,00,00,80,
1102149505,000000FD,false,Rx,1,8,67,ED,3F,80,D7,19,00,00,
1102149763,17F00010,true,Rx,0,8,20,10,00,00,00,00,00,80,
1102149774,00000101,false,Rx,1,8,7A,0D,78,32,82,31,41,00,
1102150052,17F00010,true,Rx,0,8,20,10,00,00,00,00,00,80,
1102150063,0000032A,false,Rx,1,8,49,0E,00,00,00,02,00,00,
1102150339,17F00010,true,Rx,0,8,20,10,00,00,00,00,00,80,
1102150359,000003B5,false,Rx,1,8,86,FE,00,16,1C,7D,18,00,
1102150627,17F00010,true,Rx,0,8,20,10,00,00,00,00,00,80,
1102150637,1B000046,true,Rx,1,8,46,00,04,01,01,00,00,00,
1102150916,17F00010,true,Rx,0,8,20,10,00,00,00,00,00,80,
1102150927,000005E9,false,Rx,1,8,00,52,13,00,00,00,00,00,
1102151203,17F00010,true,Rx,0,8,20,10,00,00,00,00,00,80,
1102151213,00000668,false,Rx,1,8,02,00,00,43,00,00,C1,29,
1102151491,17F00010,true,Rx,0,8,20,10,00,00,00,00,00,80,
1102151501,000005A0,false,Rx,1,5,65,FD,83,20,78,00,00,00,
1102176659,17F00010,true,Rx,0,8,20,10,00,00,00,00,00,80,
1102176670,000003CF,false,Rx,1,8,02,00,0E,00,00,00,60,01,
1102176929,17F00010,true,Rx,0,8,20,10,00,00,00,00,00,80,
1102176939,000003CE,false,Rx,1,8,02,00,0E,00,00,00,60,00,
1102177218,17F00010,true,Rx,0,8,20,10,00,00,00,00,00,80,
1102177238,00000324,false,Rx,1,8,20,04,00,00,00,00,00,00,
1102177505,17F00010,true,Rx,0,8,20,10,00,00,00,00,00,80,
1102177515,000003DC,false,Rx,1,8,E0,00,16,2B,00,08,00,00,
1102177793,17F00010,true,Rx,0,8,20,10,00,00,00,00,00,80,
1102177803,000003EB,false,Rx,1,8,E0,00,00,FE,00,00,00,00,
1102178084,17F00010,true,Rx,0,8,20,10,00,00,00,00,00,80,
1102178095,00000107,false,Rx,1,8,8B,00,FE,89,83,59,22,9D,
1102178369,17F00010,true,Rx,0,8,20,10,00,00,00,00,00,80,
1102178379,000000FD,false,Rx,1,8,78,EF,3F,80,F3,19,00,00,
1102178657,17F00010,true,Rx,0,8,20,10,00,00,00,00,00,80,
1102178667,000003EA,false,Rx,1,8,00,00,00,10,06,AB,DB,7B,
1102204435,17F00010,true,Rx,0,8,20,10,00,00,00,00,00,80,
1102204446,1B000073,true,Rx,1,8,73,00,04,01,01,00,11,00,
1102204698,17F00010,true,Rx,0,8,20,10,00,00,00,00,00,80,
1102204709,0000031E,false,Rx,1,8,6B,EC,3F,00,00,00,00,00,
1102204986,17F00010,true,Rx,0,8,20,10,00,00,00,00,00,80,
1102204998,00000107,false,Rx,1,8,8B,00,FE,8B,03,5A,84,9D,
1102205274,17F00010,true,Rx,0,8,20,10,00,00,00,00,00,80,
1102205285,1B000014,true,Rx,1,8,14,00,04,01,01,00,00,00,
1102205562,17F00010,true,Rx,0,8,20,10,00,00,00,00,00,80,
1102205573,1B00000C,true,Rx,1,8,0C,00,04,01,01,00,04,00,
1102205851,17F00010,true,Rx,0,8,20,10,00,00,00,00,00,80,
1102205862,000000FD,false,Rx,1,8,8C,E0,3F,80,F9,19,00,00,
1102206138,17F00010,true,Rx,0,8,20,10,00,00,00,00,00,80,
1102206149,00000101,false,Rx,1,8,D2,00,7A,36,82,01,41,00,
1102206426,17F00010,true,Rx,0,8,20,10,00,00,00,00,00,80,
1102206438,000003E5,false,Rx,1,8,F2,13,00,00,00,00,00,00,
1102231853,17F00010,true,Rx,0,8,20,10,00,00,00,00,00,80,
1102231864,000003D5,false,Rx,1,8,2D,03,00,00,00,00,00,00,
1102232131,17F00010,true,Rx,0,8,20,10,00,00,00,00,00,80,
1102232142,000000FD,false,Rx,1,8,B4,E1,3F,80,FE,19,00,00,
1102232429,17F00010,true,Rx,0,8,20,10,00,00,00,00,00,80,
1102232441,00000101,false,Rx,1,8,18,01,79,36,82,F4,40,00,
1102232707,17F00010,true,Rx,0,8,20,10,00,00,00,00,00,80,
1102232718,000003DC,false,Rx,1,8,E0,00,00,2B,00,08,00,00,
1102232995,17F00010,true,Rx,0,8,20,10,00,00,00,00,00,80,
1102233006,17332710,true,Rx,1,3,39,D3,00,00,00,00,00,00,
1102233286,17F00010,true,Rx,0,8,20,10,00,00,00,00,00,80,
1102233297,00000551,false,Rx,1,8,E1,22,E4,DA,00,00,00,00,
1102233571,17F00010,true,Rx,0,8,20,10,00,00,00,00,00,80,
1102233581,00000324,false,Rx,1,8,44,05,00,00,00,00,00,00,
1102233859,17F00010,true,Rx,0,8,20,10,00,00,00,00,00,80,
1102233880,0000012B,false,Rx,1,8,01,1B,80,10,00,00,00,00,
1102258862,17F00010,true,Rx,0,8,20,10,00,00,00,00,00,80,
1102258872,000003DA,false,Rx,1,8,22,00,00,0F,1A,2C,02,00,
1102259130,17F00010,true,Rx,0,8,20,10,00,00,00,00,00,80,
1102259141,17332810,true,Rx,1,8,B0,0F,3A,11,0E,4F,6E,65,
1102259420,17F00010,true,Rx,0,8,20,10,00,00,00,00,00,80,
1102259430,000005F0,false,Rx,1,8,FD,00,64,00,00,7E,00,00,
1102259706,17F00010,true,Rx,0,8,20,10,00,00,00,00,00,80,
1102259717,000003D1,false,Rx,1,8,02,00,00,00,00,00,00,00,
1102259994,17F00010,true,Rx,0,8,20,10,00,00,00,00,00,80,
1102260005,000003D0,false,Rx,1,8,02,00,00,00,00,00,00,00,
1102260282,17F00010,true,Rx,0,8,20,10,00,00,00,00,00,80,
1102260293,000003D6,false,Rx,1,8,0F,00,00,00,00,00,20,00,
1102260570,17F00010,true,Rx,0,8,20,10,00,00,00,00,00,80,
1102260581,000005E1,false,Rx,1,8,A6,00,00,00,00,00,00,00,
1102260858,17F00010,true,Rx,0,8,20,10,00,00,00,00,00,80,
1102260869,00000107,false,Rx,1,8,8B,00,FE,8F,83,59,0C,9F,
1102286281,17F00010,true,Rx,0,8,20,10,00,00,00,00,00,80,
1102286292,0000012B,false,Rx,1,8,44,1C,80,10,00,00,00,00,
1102286563,17F00010,true,Rx,0,8,20,10,00,00,00,00,00,80,
1102286574,17331B10,true,Rx,1,8,36,C3,78,0D,24,00,00,00,
1102286852,17F00010,true,Rx,0,8,20,10,00,00,00,00,00,80,
1102286863,000000FD,false,Rx,1,8,C9,E4,3F,80,2B,1A,00,00,
1102287139,17F00010,true,Rx,0,8,20,10,00,00,00,00,00,80,
1102287150,00000101,false,Rx,1,8,22,04,7C,37,82,C3,40,00,
1102287427,17F00010,true,Rx,0,8,20,10,00,00,00,00,00,80,
1102287439,00000394,false,Rx,1,8,57,49,00,04,00,00,00,00,
1102287718,17F00010,true,Rx,0,8,20,10,00,00,00,00,00,80,
1102287729,17332810,true,Rx,1,8,F0,50,6C,75,73,20,4A,75,
1102288005,17F00010,true,Rx,0,8,20,10,00,00,00,00,00,80,
1102288016,00000658,false,Rx,1,8,3E,02,04,00,00,00,00,00,
1102288291,17F00010,true,Rx,0,8,20,10,00,00,00,00,00,80,
1102288301,00000116,false,Rx,1,8,A4,04,33,2A,59,9C,75,FF,
1102313710,17F00010,true,Rx,0,8,20,10,00,00,00,00,00,80,
1102313721,000003BE,false,Rx,1,8,00,30,E7,01,88,80,0C,00,
1102313966,17F00010,true,Rx,0,8,20,10,00,00,00,00,00,80,
1102313977,00000040,false,Rx,1,8,48,8E,00,00,80,00,00,00,
1102314245,17F00010,true,Rx,0,8,20,10,00,00,00,00,00,80,
1102314256,0000030B,false,Rx,1,8,10,06,00,45,08,00,DC,00,
1102314534,17F00010,true,Rx,0,8,20,10,00,00,00,00,00,80,
1102314545,0000012B,false,Rx,1,8,10,1D,80,10,00,00,00,00,
1102314821,17F00010,true,Rx,0,8,20,10,00,00,00,00,00,80,
1102314841,0000031B,false,Rx,1,8,2A,06,92,27,00,2D,15,00,
1102315109,17F00010,true,Rx,0,8,20,10,00,00,00,00,00,80,
1102315120,17332810,true,Rx,1,5,F1,6C,69,6E,65,00,00,00,
1102315398,17F00010,true,Rx,0,8,20,10,00,00,00,00,00,80,
1102315409,00000107,false,Rx,1,8,8B,00,FE,92,03,59,CC,9F,
1102315685,17F00010,true,Rx,0,8,20,10,00,00,00,00,00,80,
1102315696,0000030C,false,Rx,1,8,33,F7,3F,00,A0,30,00,40,
1102340881,17F00010,true,Rx,0,8,20,10,00,00,00,00,00,80,
1102340892,000003C0,false,Rx,1,4,74,00,03,00,00,00,00,00,
1102341151,17F00010,true,Rx,0,8,20,10,00,00,00,00,00,80,
1102341161,000003DB,false,Rx,1,8,50,10,00,00,07,00,01,A6,
1102341440,17F00010,true,Rx,0,8,20,10,00,00,00,00,00,80,
1102341452,00000658,false,Rx,1,8,C2,03,04,00,00,00,00,00,
1102341726,17F00010,true,Rx,0,8,20,10,00,00,00,00,00,80,
1102341737,00000107,false,Rx,1,8,8B,00,FE,94,83,59,2D,A0,
1102342014,17F00010,true,Rx,0,8,20,10,00,00,00,00,00,80,
1102342035,0000012B,false,Rx,1,8,5F,1E,80,10,00,00,00,00,
1102342306,17F00010,true,Rx,0,8,20,10,00,00,00,00,00,80,
1102342317,000000FD,false,Rx,1,8,E2,E7,3F,80,47,1A,00,00,
1102342591,17F00010,true,Rx,0,8,20,10,00,00,00,00,00,80,
1102342601,00000101,false,Rx,1,8,E5,07,7D,35,82,DC,40,00,
1102342879,17F00010,true,Rx,0,8,20,10,00,00,00,00,00,80,
1102342889,1B000010,true,Rx,1,8,10,00,04,01,29,04,00,00,
1102367976,17F00010,true,Rx,0,8,20,10,00,00,00,00,00,80,
1102367987,00000040,false,Rx,1,8,2C,8F,00,00,80,00,00,00,
1102368223,17F00010,true,Rx,0,8,20,10,00,00,00,00,00,80,
1102368233,00000107,false,Rx,1,8,8B,00,FE,96,03,59,8D,A0,
1102368510,17F00010,true,Rx,0,8,20,10,00,00,00,00,00,80,
1102368521,0000030B,false,Rx,1,8,10,07,00,45,08,00,DD,00,
1102368800,17F00010,true,Rx,0,8,20,10,00,00,00,00,00,80,
1102368810,00000663,false,Rx,1,8,60,28,20,0E,29,9A,16,00,
1102369086,17F00010,true,Rx,0,8,20,10,00,00,00,00,00,80,
1102369097,0000048B,false,Rx,1,8,00,00,00,00,00,80,03,00,
1102369374,17F00010,true,Rx,0,8,20,10,00,00,00,00,00,80,
1102369385,000000FD,false,Rx,1,8,35,E8,3F,80,58,1A,00,00,
1102369663,17F00010,true,Rx,0,8,20,10,00,00,00,00,00,80,
1102369673,00000101,false,Rx,1,8,A7,08,7D,35,82,DC,40,00,
1102369951,17F00010,true,Rx,0,8,20,10,00,00,00,00,00,80,
1102369961,00000658,false,Rx,1,8,B4,04,04,00,00,00,00,00,
1102395396,17F00010,true,Rx,0,8,20,10,00,00,00,00,00,80,
1102395406,000003C7,false,Rx,1,8,14,10,28,00,00,30,80,00,
1102395642,17F00010,true,Rx,0,8,20,10,00,00,00,00,00,80,
1102395653,0000030C,false,Rx,1,8,71,F8,3F,00,A0,30,00,40,
1102395930,17F00010,true,Rx,0,8,20,10,00,00,00,00,00,80,
1102395941,0000032A,false,Rx,1,8,C3,03,00,00,00,02,00,00,
1102396219,17F00010,true,Rx,0,8,20,10,00,00,00,00,00,80,
1102396230,000003EA,false,Rx,1,8,00,00,00,10,86,AA,DB,7B,
1102396506,17F00010,true,Rx,0,8,20,10,00,00,00,00,00,80,
1102396517,17332310,true,Rx,1,3,38,CF,00,00,00,00,00,00,
1102396797,17F00010,true,Rx,0,8,20,10,00,00,00,00,00,80,
1102396807,17332210,true,Rx,1,3,38,8F,00,00,00,00,00,00,
1102397082,17F00010,true,Rx,0,8,20,10,00,00,00,00,00,80,
1102397093,17330E10,true,Rx,1,3,33,8D,10,00,00,00,00,00,
1102397370,17F00010,true,Rx,0,8,20,10,00,00,00,00,00,80,
1102397391,0000031B,false,Rx,1,8,F6,08,F8,27,00,85,15,00,
1102421558,17F00010,true,Rx,0,8,20,10,00,00,00,00,00,80,
1102421569,000006B4,false,Rx,1,8,00,FB,A0,42,41,54,4D,42,
1102421790,17F00010,true,Rx,0,8,20,10,00,00,00,00,00,80,
1102421801,00000107,false,Rx,1,8,8B,00,FE,9D,83,59,C4,A1,
1102422078,17F00010,true,Rx,0,8,20,10,00,00,00,00,00,80,
1102422089,17330F10,true,Rx,1,8,43,D5,FF,00,00,FF,FF,00,
1102422368,17F00010,true,Rx,0,8,20,10,00,00,00,00,00,80,
1102422378,000003E5,false,Rx,1,8,E2,15,00,00,00,00,00,00,
1102422654,17F00010,true,Rx,0,8,20,10,00,00,00,00,00,80,
1102422675,000003D5,false,Rx,1,8,06,05,00,00,00,00,00,00,
1102422943,17F00010,true,Rx,0,8,20,10,00,00,00,00,00,80,
1102422953,000000FD,false,Rx,1,8,79,EB,3F,80,80,1A,00,00,
1102423231,17F00010,true,Rx,0,8,20,10,00,00,00,00,00,80,
1102423241,00000101,false,Rx,1,8,03,0B,7C,36,82,DC,40,00,
1102423519,17F00010,true,Rx,0,8,20,10,00,00,00,00,00,80,
1102423529,000000FD,false,Rx,1,8,C3,EC,3F,80,8B,1A,00,00,
1102449310,17F00010,true,Rx,0,8,20,10,00,00,00,00,00,80,
1102449321,00000101,false,Rx,1,8,82,0C,7B,36,82,DC,40,00,
1102449571,17F00010,true,Rx,0,8,20,10,00,00,00,00,00,80,
